date Tue Mar 15 02:30:55 pm 2016
base hex  timestamps absolute
internal events logged
// version 7.6.0
Begin Triggerblock Tue Mar 15 02:30:55 pm 2016
Begin Triggerblock Tue Mar 15 02:30:55 pm 2016
 279.733567 1  107             Rx   d 4 05 84 E3 7D  Length = 316000 BitCount = 83
 279.733972 1  104             Rx   d 6 7F 7D A7 7D 87 7D  Length = 388000 BitCount = 101
 279.743652 1  104             Rx   d 6 7F 7D B7 7D 7F 7D  Length = 396000 BitCount = 103
 279.743984 1  107             Rx   d 4 05 84 E3 7D  Length = 316000 BitCount = 83
 279.744488 1  101             Rx   d 8 00 00 00 00 00 00 00 00  Length = 488000 BitCount = 126
 279.753632 1  107             Rx   d 4 05 84 E3 7D  Length = 316000 BitCount = 83
 279.754036 1  104             Rx   d 6 7F 7D 8F 7D 7B 7D  Length = 388000 BitCount = 101
 279.763676 1  104             Rx   d 6 7F 7D 5F 7D 83 7D  Length = 396000 BitCount = 103
 279.764008 1  107             Rx   d 4 05 84 E3 7D  Length = 316000 BitCount = 83
 279.764512 1  101             Rx   d 8 00 00 00 00 00 00 00 00  Length = 488000 BitCount = 126
 279.773672 1  104             Rx   d 6 7F 7D BF 7D 93 7D  Length = 400000 BitCount = 104
 279.774004 1  107             Rx   d 4 05 84 E3 7D  Length = 316000 BitCount = 83
 279.783581 1  107             Rx   d 4 05 84 E3 7D  Length = 316000 BitCount = 83
 279.784085 1  101             Rx   d 8 00 00 00 00 00 00 00 00  Length = 488000 BitCount = 126
 279.784493 1  104             Rx   d 6 7F 7D 47 7E 87 7D  Length = 392000 BitCount = 102
 279.793705 1  104             Rx   d 6 7F 7D 4F 7E 77 7D  Length = 396000 BitCount = 103
 279.794037 1  107             Rx   d 4 05 84 E3 7D  Length = 316000 BitCount = 83
 279.803621 1  107             Rx   d 4 05 84 E3 7D  Length = 316000 BitCount = 83
 279.804025 1  104             Rx   d 6 7F 7D 47 7E 7B 7D  Length = 388000 BitCount = 101
 279.804529 1  101             Rx   d 8 00 00 00 00 00 00 00 00  Length = 488000 BitCount = 126
 279.813673 1  104             Rx   d 6 7F 7D 77 7E 83 7D  Length = 400000 BitCount = 104
 279.814005 1  107             Rx   d 4 05 84 E3 7D  Length = 316000 BitCount = 83
 279.823590 1  107             Rx   d 4 05 84 E3 7D  Length = 316000 BitCount = 83
 279.823998 1  105             Rx   d 6 49 2A 8D 1F 00 00  Length = 392000 BitCount = 102
 279.824282 1  103             Rx   d 2 00 00  Length = 268000 BitCount = 71
 279.824786 1  101             Rx   d 8 00 00 00 00 00 00 00 00  Length = 488000 BitCount = 126
 279.825198 1  104             Rx   d 6 7F 7D 57 7E 83 7D  Length = 396000 BitCount = 103
 279.833658 1  104             Rx   d 6 7F 7D BF 7D 83 7D  Length = 396000 BitCount = 103
 279.833990 1  107             Rx   d 4 05 84 E3 7D  Length = 316000 BitCount = 83
 279.843590 1  107             Rx   d 4 05 84 E3 7D  Length = 316000 BitCount = 83
 279.844002 1  104             Rx   d 6 7F 7D 7F 7D 87 7D  Length = 396000 BitCount = 103
 279.844506 1  101             Rx   d 8 00 00 00 00 00 00 00 00  Length = 488000 BitCount = 126
 279.853658 1  104             Rx   d 6 7F 7D 8F 7D 7B 7D  Length = 388000 BitCount = 101
 279.853990 1  107             Rx   d 4 05 84 E3 7D  Length = 316000 BitCount = 83
 279.863838 1  101             Rx   d 8 00 00 00 00 00 00 00 00  Length = 488000 BitCount = 126
 279.864170 1  107             Rx   d 4 05 84 E3 7D  Length = 316000 BitCount = 83
 279.864582 1  104             Rx   d 6 7F 7D 9F 7D 73 7D  Length = 396000 BitCount = 103
 279.873675 1  104             Rx   d 6 7F 7D 9F 7D 7F 7D  Length = 400000 BitCount = 104
 279.874007 1  107             Rx   d 4 05 84 E3 7D  Length = 316000 BitCount = 83
 279.883619 1  107             Rx   d 4 05 84 E3 7D  Length = 316000 BitCount = 83
 279.884031 1  104             Rx   d 6 7F 7D F7 7D 8F 7D  Length = 396000 BitCount = 103
 279.884535 1  101             Rx   d 8 00 00 00 00 00 00 00 00  Length = 488000 BitCount = 126
 279.893667 1  104             Rx   d 6 7F 7D 4F 7E 87 7D  Length = 392000 BitCount = 102
 279.893999 1  107             Rx   d 4 05 84 E3 7D  Length = 316000 BitCount = 83
 279.903639 1  107             Rx   d 4 05 84 E3 7D  Length = 316000 BitCount = 83
 279.904043 1  104             Rx   d 6 7F 7D 37 7E 7B 7D  Length = 388000 BitCount = 101
 279.904547 1  101             Rx   d 8 00 00 00 00 00 00 00 00  Length = 488000 BitCount = 126
 279.913688 1  104             Rx   d 6 7F 7D 1F 7E 87 7D  Length = 396000 BitCount = 103
 279.914020 1  107             Rx   d 4 05 84 E3 7D  Length = 316000 BitCount = 83
 279.923624 1  107             Rx   d 4 05 84 E3 7D  Length = 316000 BitCount = 83
 279.924128 1  101             Rx   d 8 00 00 00 00 00 00 00 00  Length = 488000 BitCount = 126
 279.924548 1  104             Rx   d 6 7F 7D 3F 7E 83 7D  Length = 404000 BitCount = 105
 279.924832 1  103             Rx   d 2 00 00  Length = 268000 BitCount = 71
 279.933668 1  104             Rx   d 6 7F 7D 27 7E 7B 7D  Length = 392000 BitCount = 102
 279.934000 1  107             Rx   d 4 05 84 E3 7D  Length = 316000 BitCount = 83
 279.943588 1  107             Rx   d 4 05 84 E3 7D  Length = 316000 BitCount = 83
 279.943996 1  104             Rx   d 6 7F 7D C7 7D 7F 7D  Length = 392000 BitCount = 102
 279.944500 1  101             Rx   d 8 00 00 00 00 00 00 00 00  Length = 488000 BitCount = 126
 279.953668 1  104             Rx   d 6 7F 7D AF 7D 7F 7D  Length = 392000 BitCount = 102
 279.954000 1  107             Rx   d 4 05 84 E3 7D  Length = 316000 BitCount = 83
 279.963585 1  107             Rx   d 4 05 84 E3 7D  Length = 316000 BitCount = 83
 279.964089 1  101             Rx   d 8 00 00 00 00 00 00 00 00  Length = 488000 BitCount = 126
 279.964497 1  104             Rx   d 6 7F 7D CF 7D 7F 7D  Length = 392000 BitCount = 102
 279.973625 1  107             Rx   d 4 05 84 E3 7D  Length = 316000 BitCount = 83
 279.974029 1  104             Rx   d 6 7F 7D 97 7D 7B 7D  Length = 388000 BitCount = 101
 279.983633 1  107             Rx   d 4 05 84 E3 7D  Length = 316000 BitCount = 83
 279.984137 1  101             Rx   d 8 00 00 00 00 00 00 00 00  Length = 488000 BitCount = 126
 279.984549 1  104             Rx   d 6 7F 7D 7F 7D 77 7D  Length = 396000 BitCount = 103
 279.993681 1  104             Rx   d 6 7F 7D DF 7D 73 7D  Length = 392000 BitCount = 102
 279.994013 1  107             Rx   d 4 05 84 E3 7D  Length = 316000 BitCount = 83
 280.000879 CAN 1 Status:chip status error active
 280.003634 1  107             Rx   d 4 05 84 E3 7D  Length = 316000 BitCount = 83
 280.004138 1  101             Rx   d 8 00 00 00 00 00 00 00 00  Length = 488000 BitCount = 126
 280.004542 1  104             Rx   d 6 7F 7D 47 7E 7B 7D  Length = 388000 BitCount = 101
 280.005563 1  Statistic: D 264 R 0 XD 0 XR 0 E 0 O 0 B 10.37%
 280.013722 1  104             Rx   d 6 7F 7D 3F 7E 83 7D  Length = 404000 BitCount = 105
 280.014054 1  107             Rx   d 4 05 84 E3 7D  Length = 316000 BitCount = 83
 280.023598 1  107             Rx   d 4 05 84 E3 7D  Length = 316000 BitCount = 83
 280.024102 1  101             Rx   d 8 00 00 00 00 00 00 00 00  Length = 488000 BitCount = 126
 280.024386 1  103             Rx   d 2 00 00  Length = 268000 BitCount = 71
 280.024794 1  104             Rx   d 6 7F 7D 37 7E 87 7D  Length = 392000 BitCount = 102
 280.033694 1  104             Rx   d 6 7F 7D 67 7E 7B 7D  Length = 388000 BitCount = 101
 280.034026 1  107             Rx   d 4 05 84 E3 7D  Length = 316000 BitCount = 83
 280.043626 1  107             Rx   d 4 05 84 E3 7D  Length = 316000 BitCount = 83
 280.044034 1  104             Rx   d 6 7F 7D 37 7E 73 7D  Length = 392000 BitCount = 102
 280.044538 1  101             Rx   d 8 00 00 00 00 00 00 00 00  Length = 488000 BitCount = 126
 280.053723 1  104             Rx   d 6 7F 7D BF 7D 8B 7D  Length = 392000 BitCount = 102
 280.054055 1  107             Rx   d 4 05 84 E3 7D  Length = 316000 BitCount = 83
 280.063635 1  107             Rx   d 4 05 84 E3 7D  Length = 316000 BitCount = 83
 280.064043 1  104             Rx   d 6 7F 7D 9F 7D 9B 7D  Length = 392000 BitCount = 102
 280.064547 1  101             Rx   d 8 00 00 00 00 00 00 00 00  Length = 488000 BitCount = 126
 280.073599 1  107             Rx   d 4 FE 83 E3 7D  Length = 320000 BitCount = 84
 280.074011 1  104             Rx   d 6 7F 7D B7 7D 7F 7D  Length = 396000 BitCount = 103
 280.074415 1  105             Rx   d 6 43 2A 97 1F 00 00  Length = 388000 BitCount = 101
 280.083603 1  107             Rx   d 4 FE 83 E3 7D  Length = 320000 BitCount = 84
 280.084011 1  104             Rx   d 6 7F 7D 77 7D 73 7D  Length = 392000 BitCount = 102
 280.084515 1  101             Rx   d 8 00 00 00 00 00 00 00 00  Length = 488000 BitCount = 126
 280.093728 1  104             Rx   d 6 7F 7D 6F 7D 83 7D  Length = 396000 BitCount = 103
 280.094060 1  107             Rx   d 4 05 84 E3 7D  Length = 316000 BitCount = 83
 280.103604 1  107             Rx   d 4 05 84 E3 7D  Length = 316000 BitCount = 83
 280.104016 1  104             Rx   d 6 7F 7D FF 7D 83 7D  Length = 396000 BitCount = 103
 280.104520 1  101             Rx   d 8 00 00 00 00 00 00 00 00  Length = 488000 BitCount = 126
 280.113596 1  107             Rx   d 4 05 84 E3 7D  Length = 316000 BitCount = 83
 280.114004 1  104             Rx   d 6 7F 7D 7F 7E 73 7D  Length = 392000 BitCount = 102
 280.123668 1  104             Rx   d 6 7F 7D 77 7E 73 7D  Length = 388000 BitCount = 101
 280.124000 1  107             Rx   d 4 05 84 E3 7D  Length = 316000 BitCount = 83
 280.124284 1  103             Rx   d 2 00 00  Length = 268000 BitCount = 71
 280.124788 1  101             Rx   d 8 00 00 00 00 00 00 00 00  Length = 488000 BitCount = 126
 280.133680 1  104             Rx   d 6 7F 7D 5F 7E 7F 7D  Length = 400000 BitCount = 104
 280.134012 1  107             Rx   d 4 05 84 E3 7D  Length = 316000 BitCount = 83
 280.143597 1  107             Rx   d 4 05 84 E3 7D  Length = 316000 BitCount = 83
 280.144101 1  101             Rx   d 8 00 00 00 00 00 00 00 00  Length = 488000 BitCount = 126
 280.144513 1  104             Rx   d 6 7F 7D 5F 7E 73 7D  Length = 396000 BitCount = 103
 280.153673 1  104             Rx   d 6 7F 7D 17 7E 6F 7D  Length = 392000 BitCount = 102
 280.154005 1  107             Rx   d 4 05 84 E3 7D  Length = 316000 BitCount = 83
 280.163617 1  107             Rx   d 4 05 84 E3 7D  Length = 316000 BitCount = 83
 280.164029 1  104             Rx   d 6 7F 7D B7 7D 83 7D  Length = 396000 BitCount = 103
 280.164533 1  101             Rx   d 8 00 00 00 00 00 00 00 00  Length = 488000 BitCount = 126
 280.173669 1  104             Rx   d 6 7F 7D C7 7D 87 7D  Length = 388000 BitCount = 101
 280.174001 1  107             Rx   d 4 05 84 E3 7D  Length = 316000 BitCount = 83
 280.183590 1  107             Rx   d 4 05 84 E3 7D  Length = 316000 BitCount = 83
 280.183998 1  104             Rx   d 6 7F 7D E7 7D 7F 7D  Length = 392000 BitCount = 102
 280.184502 1  101             Rx   d 8 00 00 00 00 00 00 00 00  Length = 488000 BitCount = 126
 280.193674 1  104             Rx   d 6 7F 7D B7 7D 73 7D  Length = 392000 BitCount = 102
 280.194006 1  107             Rx   d 4 05 84 E3 7D  Length = 316000 BitCount = 83
 280.203838 1  101             Rx   d 8 00 00 00 00 00 00 00 00  Length = 488000 BitCount = 126
 280.204170 1  107             Rx   d 4 05 84 E3 7D  Length = 316000 BitCount = 83
 280.204586 1  104             Rx   d 6 7F 7D 9F 7D 7B 7D  Length = 400000 BitCount = 104
 280.213722 1  104             Rx   d 6 7F 7D 0F 7E 7F 7D  Length = 392000 BitCount = 102
 280.214058 1  107             Rx   d 4 FE 83 E3 7D  Length = 320000 BitCount = 84
 280.223634 1  107             Rx   d 4 FE 83 E3 7D  Length = 320000 BitCount = 84
 280.224038 1  104             Rx   d 6 7F 7D 47 7E 6B 7D  Length = 388000 BitCount = 101
 280.224542 1  101             Rx   d 8 00 00 00 00 00 00 00 00  Length = 488000 BitCount = 126
 280.224827 1  103             Rx   d 2 00 00  Length = 268000 BitCount = 71
 280.233599 1  107             Rx   d 4 05 84 E3 7D  Length = 316000 BitCount = 83
 280.234007 1  104             Rx   d 6 7F 7D EF 7D 7B 7D  Length = 392000 BitCount = 102
 280.243683 1  104             Rx   d 6 7F 7D D7 7D 8F 7D  Length = 388000 BitCount = 101
 280.244015 1  107             Rx   d 4 05 84 E3 7D  Length = 316000 BitCount = 83
 280.244519 1  101             Rx   d 8 00 00 00 00 00 00 00 00  Length = 488000 BitCount = 126
 280.253651 1  107             Rx   d 4 05 84 E3 7D  Length = 316000 BitCount = 83
 280.254059 1  104             Rx   d 6 7F 7D 0F 7E 83 7D  Length = 392000 BitCount = 102
 280.263667 1  104             Rx   d 6 7F 7D DF 7D 7F 7D  Length = 400000 BitCount = 104
 280.263999 1  107             Rx   d 4 05 84 E3 7D  Length = 316000 BitCount = 83
 280.264503 1  101             Rx   d 8 00 00 00 00 00 00 00 00  Length = 488000 BitCount = 126
 280.273680 1  104             Rx   d 6 7F 7D 6F 7D 83 7D  Length = 396000 BitCount = 103
 280.274012 1  107             Rx   d 4 05 84 E3 7D  Length = 316000 BitCount = 83
 280.283588 1  107             Rx   d 4 05 84 E3 7D  Length = 316000 BitCount = 83
 280.284092 1  101             Rx   d 8 00 00 00 00 00 00 00 00  Length = 488000 BitCount = 126
 280.284504 1  104             Rx   d 6 7F 7D 6F 7D 83 7D  Length = 396000 BitCount = 103
 280.293716 1  104             Rx   d 6 7F 7D 87 7D 6F 7D  Length = 392000 BitCount = 102
 280.294048 1  107             Rx   d 4 05 84 E3 7D  Length = 316000 BitCount = 83
 280.303600 1  107             Rx   d 4 05 84 E3 7D  Length = 316000 BitCount = 83
 280.304004 1  104             Rx   d 6 7F 7D 87 7D 77 7D  Length = 388000 BitCount = 101
 280.304508 1  101             Rx   d 8 00 00 00 00 00 00 00 00  Length = 488000 BitCount = 126
 280.313676 1  104             Rx   d 6 7F 7D BF 7D 8B 7D  Length = 392000 BitCount = 102
 280.314009 1  107             Rx   d 4 05 84 E3 7D  Length = 316000 BitCount = 83
 280.323597 1  107             Rx   d 4 05 84 E3 7D  Length = 316000 BitCount = 83
 280.323881 1  103             Rx   d 2 00 00  Length = 268000 BitCount = 71
 280.324385 1  101             Rx   d 8 00 00 00 00 00 00 00 00  Length = 488000 BitCount = 126
 280.324789 1  105             Rx   d 6 44 2A 85 1F 00 00  Length = 388000 BitCount = 101
 280.325197 1  104             Rx   d 6 7F 7D 4F 7E 87 7D  Length = 392000 BitCount = 102
 280.333689 1  104             Rx   d 6 7F 7D 87 7E 77 7D  Length = 388000 BitCount = 101
 280.334021 1  107             Rx   d 4 05 84 E3 7D  Length = 316000 BitCount = 83
 280.343665 1  107             Rx   d 4 05 84 E3 7D  Length = 316000 BitCount = 83
 280.344077 1  104             Rx   d 6 7F 7D 3F 7E 7F 7D  Length = 396000 BitCount = 103
 280.344581 1  101             Rx   d 8 00 00 00 00 00 00 00 00  Length = 488000 BitCount = 126
 280.353673 1  104             Rx   d 6 7F 7D 0F 7E 93 7D  Length = 388000 BitCount = 101
 280.354005 1  107             Rx   d 4 05 84 E3 7D  Length = 316000 BitCount = 83
 280.363594 1  107             Rx   d 4 05 84 E3 7D  Length = 316000 BitCount = 83
 280.364098 1  101             Rx   d 8 00 00 00 00 00 00 00 00  Length = 488000 BitCount = 126
 280.364510 1  104             Rx   d 6 7F 7D F7 7D 83 7D  Length = 396000 BitCount = 103
 280.373710 1  104             Rx   d 6 7F 7D A7 7D 7F 7D  Length = 392000 BitCount = 102
 280.374042 1  107             Rx   d 4 05 84 E3 7D  Length = 316000 BitCount = 83
 280.383598 1  107             Rx   d 4 05 84 E3 7D  Length = 316000 BitCount = 83
 280.384010 1  104             Rx   d 6 7F 7D 7F 7D 97 7D  Length = 396000 BitCount = 103
 280.384514 1  101             Rx   d 8 00 00 00 00 00 00 00 00  Length = 488000 BitCount = 126
 280.393670 1  104             Rx   d 6 7F 7D CF 7D 97 7D  Length = 388000 BitCount = 101
 280.394006 1  107             Rx   d 4 FE 83 E3 7D  Length = 320000 BitCount = 84
 280.403607 1  107             Rx   d 4 FE 83 E3 7D  Length = 320000 BitCount = 84
 280.404111 1  101             Rx   d 8 00 00 00 00 00 00 00 00  Length = 488000 BitCount = 126
 280.404519 1  104             Rx   d 6 7F 7D D7 7D 7F 7D  Length = 392000 BitCount = 102
 280.413599 1  107             Rx   d 4 05 84 E3 7D  Length = 316000 BitCount = 83
 280.414015 1  104             Rx   d 6 7F 7D 57 7D 7F 7D  Length = 400000 BitCount = 104
 280.423655 1  107             Rx   d 4 05 84 E3 7D  Length = 316000 BitCount = 83
 280.424159 1  101             Rx   d 8 00 00 00 00 00 00 00 00  Length = 488000 BitCount = 126
 280.424571 1  104             Rx   d 6 7F 7D 37 7D 83 7D  Length = 396000 BitCount = 103
 280.424855 1  103             Rx   d 2 00 00  Length = 268000 BitCount = 71
 280.433683 1  104             Rx   d 6 7F 7D BF 7D 7F 7D  Length = 396000 BitCount = 103
 280.434015 1  107             Rx   d 4 05 84 E3 7D  Length = 316000 BitCount = 83
 280.443599 1  107             Rx   d 4 05 84 E3 7D  Length = 316000 BitCount = 83
 280.444011 1  104             Rx   d 6 7F 7D 1F 7E 7F 7D  Length = 396000 BitCount = 103
 280.444515 1  101             Rx   d 8 00 00 00 00 00 00 00 00  Length = 488000 BitCount = 126
 280.453660 1  104             Rx   d 6 7F 7D 37 7E 8B 7D  Length = 388000 BitCount = 101
 280.453992 1  107             Rx   d 4 05 84 E3 7D  Length = 316000 BitCount = 83
 280.463740 1  104             Rx   d 6 7F 7D 6F 7E 97 7D  Length = 392000 BitCount = 102
 280.464244 1  101             Rx   d 8 00 00 00 00 00 00 00 00  Length = 488000 BitCount = 126
 280.464576 1  107             Rx   d 4 05 84 E3 7D  Length = 316000 BitCount = 83
 280.473616 1  107             Rx   d 4 05 84 E3 7D  Length = 316000 BitCount = 83
 280.474024 1  104             Rx   d 6 7F 7D 87 7E 7F 7D  Length = 392000 BitCount = 102
 280.483712 1  104             Rx   d 6 7F 7D F7 7D 7B 7D  Length = 392000 BitCount = 102
 280.484216 1  101             Rx   d 8 00 00 00 00 00 00 00 00  Length = 488000 BitCount = 126
 280.484548 1  107             Rx   d 4 05 84 E3 7D  Length = 316000 BitCount = 83
 280.493637 1  107             Rx   d 4 05 84 E3 7D  Length = 316000 BitCount = 83
 280.494045 1  104             Rx   d 6 7F 7D 77 7D 7F 7D  Length = 392000 BitCount = 102
 280.503685 1  104             Rx   d 6 7F 7D 7F 7D 7F 7D  Length = 396000 BitCount = 103
 280.504189 1  101             Rx   d 8 00 00 00 00 00 00 00 00  Length = 488000 BitCount = 126
 280.504521 1  107             Rx   d 4 05 84 E3 7D  Length = 316000 BitCount = 83
 280.513609 1  107             Rx   d 4 05 84 E3 7D  Length = 316000 BitCount = 83
 280.514017 1  104             Rx   d 6 7F 7D 87 7D 73 7D  Length = 392000 BitCount = 102
 280.523689 1  104             Rx   d 6 7F 7D 57 7D 7F 7D  Length = 400000 BitCount = 104
 280.524021 1  107             Rx   d 4 05 84 E3 7D  Length = 316000 BitCount = 83
 280.524525 1  101             Rx   d 8 00 00 00 00 00 00 00 00  Length = 488000 BitCount = 126
 280.524809 1  103             Rx   d 2 00 00  Length = 268000 BitCount = 71
 280.533733 1  104             Rx   d 6 7F 7D 7F 7D 93 7D  Length = 392000 BitCount = 102
 280.534065 1  107             Rx   d 4 05 84 E3 7D  Length = 316000 BitCount = 83
 280.543606 1  107             Rx   d 4 05 84 E3 7D  Length = 316000 BitCount = 83
 280.544010 1  104             Rx   d 6 7F 7D 0F 7E 87 7D  Length = 388000 BitCount = 101
 280.544514 1  101             Rx   d 8 00 00 00 00 00 00 00 00  Length = 488000 BitCount = 126
 280.553638 1  107             Rx   d 4 05 84 E3 7D  Length = 316000 BitCount = 83
 280.554054 1  104             Rx   d 6 7F 7D 5F 7E 7F 7D  Length = 400000 BitCount = 104
 280.563726 1  104             Rx   d 6 7F 7D 3F 7E 87 7D  Length = 392000 BitCount = 102
 280.564230 1  101             Rx   d 8 00 00 00 00 00 00 00 00  Length = 488000 BitCount = 126
 280.564562 1  107             Rx   d 4 05 84 E3 7D  Length = 316000 BitCount = 83
 280.573618 1  107             Rx   d 4 05 84 E3 7D  Length = 316000 BitCount = 83
 280.574022 1  105             Rx   d 6 4A 2A 8D 1F 00 00  Length = 388000 BitCount = 101
 280.574430 1  104             Rx   d 6 7F 7D 4F 7E 87 7D  Length = 392000 BitCount = 102
 280.583687 1  104             Rx   d 6 7F 7D 5F 7E 73 7D  Length = 396000 BitCount = 103
 280.584019 1  107             Rx   d 4 05 84 E3 7D  Length = 316000 BitCount = 83
 280.584523 1  101             Rx   d 8 00 00 00 00 00 00 00 00  Length = 488000 BitCount = 126
 280.593731 1  104             Rx   d 6 7F 7D 0F 7E 73 7D  Length = 388000 BitCount = 101
 280.594063 1  107             Rx   d 4 05 84 E3 7D  Length = 316000 BitCount = 83
 280.603627 1  107             Rx   d 4 05 84 E3 7D  Length = 316000 BitCount = 83
 280.604035 1  104             Rx   d 6 7F 7D C7 7D 8B 7D  Length = 392000 BitCount = 102
 280.604539 1  101             Rx   d 8 00 00 00 00 00 00 00 00  Length = 488000 BitCount = 126
 280.613695 1  104             Rx   d 6 7F 7D D7 7D 83 7D  Length = 392000 BitCount = 102
 280.614027 1  107             Rx   d 4 05 84 E3 7D  Length = 316000 BitCount = 83
 280.623639 1  107             Rx   d 4 05 84 E3 7D  Length = 316000 BitCount = 83
 280.624051 1  104             Rx   d 6 7F 7D BF 7D 7F 7D  Length = 396000 BitCount = 103
 280.624555 1  101             Rx   d 8 00 00 00 00 00 00 00 00  Length = 488000 BitCount = 126
 280.624839 1  103             Rx   d 2 00 00  Length = 268000 BitCount = 71
 280.633608 1  107             Rx   d 4 05 84 E3 7D  Length = 316000 BitCount = 83
 280.634016 1  104             Rx   d 6 7F 7D 7F 7D 8F 7D  Length = 392000 BitCount = 102
 280.643696 1  104             Rx   d 6 7F 7D AF 7D 8F 7D  Length = 388000 BitCount = 101
 280.644200 1  101             Rx   d 8 00 00 00 00 00 00 00 00  Length = 488000 BitCount = 126
 280.644532 1  107             Rx   d 4 05 84 E3 7D  Length = 316000 BitCount = 83
 280.653640 1  107             Rx   d 4 05 84 E3 7D  Length = 316000 BitCount = 83
 280.654048 1  104             Rx   d 6 7F 7D 2F 7E 7F 7D  Length = 392000 BitCount = 102
 280.663680 1  104             Rx   d 6 7F 7D 47 7E 7B 7D  Length = 388000 BitCount = 101
 280.664012 1  107             Rx   d 4 05 84 E3 7D  Length = 316000 BitCount = 83
 280.664516 1  101             Rx   d 8 00 00 00 00 00 00 00 00  Length = 488000 BitCount = 126
 280.673609 1  107             Rx   d 4 05 84 E3 7D  Length = 316000 BitCount = 83
 280.674017 1  104             Rx   d 6 7F 7D 2F 7E 93 7D  Length = 392000 BitCount = 102
 280.683681 1  104             Rx   d 6 7F 7D 67 7E 93 7D  Length = 388000 BitCount = 101
 280.684185 1  101             Rx   d 8 00 00 00 00 00 00 00 00  Length = 488000 BitCount = 126
 280.684517 1  107             Rx   d 4 05 84 E3 7D  Length = 316000 BitCount = 83
 280.693681 1  104             Rx   d 6 7F 7D 8F 7E 77 7D  Length = 388000 BitCount = 101
 280.694017 1  107             Rx   d 4 FE 83 E3 7D  Length = 320000 BitCount = 84
 280.703729 1  104             Rx   d 6 7F 7D 27 7E 77 7D  Length = 392000 BitCount = 102
 280.704233 1  101             Rx   d 8 00 00 00 00 00 00 00 00  Length = 488000 BitCount = 126
 280.704569 1  107             Rx   d 4 FE 83 E3 7D  Length = 320000 BitCount = 84
 280.713625 1  107             Rx   d 4 05 84 E3 7D  Length = 316000 BitCount = 83
 280.714037 1  104             Rx   d 6 7F 7D BF 7D 7F 7D  Length = 396000 BitCount = 103
 280.723718 1  104             Rx   d 6 7F 7D B7 7D 6F 7D  Length = 388000 BitCount = 101
 280.724222 1  101             Rx   d 8 00 00 00 00 00 00 00 00  Length = 488000 BitCount = 126
 280.724506 1  103             Rx   d 2 00 00  Length = 268000 BitCount = 71
 280.724838 1  107             Rx   d 4 05 84 E3 7D  Length = 316000 BitCount = 83
 280.733678 1  104             Rx   d 6 7F 7D 77 7D 6F 7D  Length = 388000 BitCount = 101
 280.734014 1  107             Rx   d 4 FE 83 E3 7D  Length = 320000 BitCount = 84
 280.743662 1  107             Rx   d 4 FE 83 E3 7D  Length = 320000 BitCount = 84
 280.744070 1  104             Rx   d 6 7F 7D 27 7D 83 7D  Length = 392000 BitCount = 102
 280.744574 1  101             Rx   d 8 00 00 00 00 00 00 00 00  Length = 488000 BitCount = 126
 280.753686 1  104             Rx   d 6 7F 7D 6F 7D 87 7D  Length = 392000 BitCount = 102
 280.754018 1  107             Rx   d 4 05 84 E3 7D  Length = 316000 BitCount = 83
 280.763663 1  107             Rx   d 4 05 84 E3 7D  Length = 316000 BitCount = 83
 280.764167 1  101             Rx   d 8 00 00 00 00 00 00 00 00  Length = 488000 BitCount = 126
 280.764583 1  104             Rx   d 6 7F 7D F7 7D 87 7D  Length = 400000 BitCount = 104
 280.773727 1  104             Rx   d 6 7F 7D 27 7E 7F 7D  Length = 396000 BitCount = 103
 280.774059 1  107             Rx   d 4 05 84 E3 7D  Length = 316000 BitCount = 83
 280.783607 1  107             Rx   d 4 05 84 E3 7D  Length = 316000 BitCount = 83
 280.784111 1  101             Rx   d 8 00 00 00 00 00 00 00 00  Length = 488000 BitCount = 126
 280.784519 1  104             Rx   d 6 7F 7D 0F 7E 83 7D  Length = 392000 BitCount = 102
 280.793695 1  104             Rx   d 6 7F 7D 17 7E 87 7D  Length = 388000 BitCount = 101
 280.794031 1  107             Rx   d 4 FE 83 E3 7D  Length = 320000 BitCount = 84
 280.803615 1  107             Rx   d 4 FE 83 E3 7D  Length = 320000 BitCount = 84
 280.804119 1  101             Rx   d 8 00 00 00 00 00 00 00 00  Length = 488000 BitCount = 126
 280.804527 1  104             Rx   d 6 7F 7D EF 7D 7F 7D  Length = 392000 BitCount = 102
 280.813612 1  107             Rx   d 4 05 84 E3 7D  Length = 316000 BitCount = 83
 280.814020 1  104             Rx   d 6 7F 7D 87 7D 7F 7D  Length = 392000 BitCount = 102
 280.823844 1  101             Rx   d 8 00 00 00 00 00 00 00 00  Length = 488000 BitCount = 126
 280.824176 1  107             Rx   d 4 05 84 E3 7D  Length = 316000 BitCount = 83
 280.824460 1  103             Rx   d 2 00 00  Length = 268000 BitCount = 71
 280.824872 1  104             Rx   d 6 7F 7D 6F 7D 83 7D  Length = 396000 BitCount = 103
 280.825272 1  105             Rx   d 6 3A 2A 7B 1F 00 00  Length = 384000 BitCount = 100
 280.833696 1  104             Rx   d 6 7F 7D 9F 7D 7F 7D  Length = 400000 BitCount = 104
 280.834028 1  107             Rx   d 4 05 84 E3 7D  Length = 316000 BitCount = 83
 280.843732 1  104             Rx   d 6 7F 7D A7 7D 7F 7D  Length = 392000 BitCount = 102
 280.844236 1  101             Rx   d 8 00 00 00 00 00 00 00 00  Length = 488000 BitCount = 126
 280.844568 1  107             Rx   d 4 05 84 E3 7D  Length = 316000 BitCount = 83
 280.853641 1  107             Rx   d 4 05 84 E3 7D  Length = 316000 BitCount = 83
 280.854053 1  104             Rx   d 6 7F 7D 87 7D 83 7D  Length = 396000 BitCount = 103
 280.863685 1  104             Rx   d 6 7F 7D B7 7D 8B 7D  Length = 392000 BitCount = 102
 280.864189 1  101             Rx   d 8 00 00 00 00 00 00 00 00  Length = 488000 BitCount = 126
 280.864521 1  107             Rx   d 4 05 84 E3 7D  Length = 316000 BitCount = 83
 280.873733 1  107             Rx   d 4 05 84 E3 7D  Length = 316000 BitCount = 83
 280.874141 1  104             Rx   d 6 7F 7D 17 7E 7F 7D  Length = 392000 BitCount = 102
 280.883705 1  104             Rx   d 6 7F 7D 27 7E 73 7D  Length = 392000 BitCount = 102
 280.884037 1  107             Rx   d 4 05 84 E3 7D  Length = 316000 BitCount = 83
 280.884541 1  101             Rx   d 8 00 00 00 00 00 00 00 00  Length = 488000 BitCount = 126
 280.893645 1  107             Rx   d 4 05 84 E3 7D  Length = 316000 BitCount = 83
 280.894053 1  104             Rx   d 6 7F 7D 27 7E 77 7D  Length = 392000 BitCount = 102
 280.903686 1  104             Rx   d 6 7F 7D 4F 7E 7B 7D  Length = 388000 BitCount = 101
 280.904018 1  107             Rx   d 4 05 84 E3 7D  Length = 316000 BitCount = 83
 280.904522 1  101             Rx   d 8 00 00 00 00 00 00 00 00  Length = 488000 BitCount = 126
 280.913722 1  104             Rx   d 6 7F 7D 27 7E 73 7D  Length = 392000 BitCount = 102
 280.914054 1  107             Rx   d 4 05 84 E3 7D  Length = 316000 BitCount = 83
 280.923602 1  107             Rx   d 4 05 84 E3 7D  Length = 316000 BitCount = 83
 280.924106 1  101             Rx   d 8 00 00 00 00 00 00 00 00  Length = 488000 BitCount = 126
 280.924514 1  104             Rx   d 6 7F 7D 87 7D 7F 7D  Length = 392000 BitCount = 102
 280.924798 1  103             Rx   d 2 00 00  Length = 268000 BitCount = 71
 280.933722 1  104             Rx   d 6 7F 7D 4F 7D 8B 7D  Length = 392000 BitCount = 102
 280.934054 1  107             Rx   d 4 05 84 E3 7D  Length = 316000 BitCount = 83
 280.943615 1  107             Rx   d 4 05 84 E3 7D  Length = 316000 BitCount = 83
 280.944023 1  104             Rx   d 6 7F 7D 6F 7D 7B 7D  Length = 392000 BitCount = 102
 280.944527 1  101             Rx   d 8 00 00 00 00 00 00 00 00  Length = 488000 BitCount = 126
 280.953739 1  104             Rx   d 6 7F 7D 7F 7D 7B 7D  Length = 392000 BitCount = 102
 280.954071 1  107             Rx   d 4 05 84 E3 7D  Length = 316000 BitCount = 83
 280.963615 1  107             Rx   d 4 05 84 E3 7D  Length = 316000 BitCount = 83
 280.964023 1  104             Rx   d 6 7F 7D B7 7D 8B 7D  Length = 392000 BitCount = 102
 280.964527 1  101             Rx   d 8 00 00 00 00 00 00 00 00  Length = 488000 BitCount = 126
 280.973619 1  107             Rx   d 4 FE 83 E3 7D  Length = 320000 BitCount = 84
 280.974027 1  104             Rx   d 6 7F 7D 3F 7E 87 7D  Length = 392000 BitCount = 102
 280.983696 1  104             Rx   d 6 7F 7D 77 7E 83 7D  Length = 400000 BitCount = 104
 280.984032 1  107             Rx   d 4 FE 83 E3 7D  Length = 320000 BitCount = 84
 280.984536 1  101             Rx   d 8 00 00 00 00 00 00 00 00  Length = 488000 BitCount = 126
 280.993672 1  107             Rx   d 4 05 84 E3 7D  Length = 316000 BitCount = 83
 280.994076 1  104             Rx   d 6 7F 7D 47 7E 7B 7D  Length = 388000 BitCount = 101
 281.003712 1  104             Rx   d 6 7F 7D 1F 7E 7F 7D  Length = 396000 BitCount = 103
 281.004044 1  107             Rx   d 4 05 84 E3 7D  Length = 316000 BitCount = 83
 281.004548 1  101             Rx   d 8 00 00 00 00 00 00 00 00  Length = 488000 BitCount = 126
 281.005563 1  Statistic: D 264 R 0 XD 0 XR 0 E 0 O 0 B 10.37%
 281.013692 1  104             Rx   d 6 7F 7D 37 7E 83 7D  Length = 392000 BitCount = 102
 281.014028 1  107             Rx   d 4 FE 83 E3 7D  Length = 320000 BitCount = 84
 281.023620 1  107             Rx   d 4 FE 83 E3 7D  Length = 320000 BitCount = 84
 281.024124 1  101             Rx   d 8 00 00 00 00 00 00 00 00  Length = 488000 BitCount = 126
 281.024532 1  104             Rx   d 6 7F 7D D7 7D 7F 7D  Length = 392000 BitCount = 102
 281.024816 1  103             Rx   d 2 00 00  Length = 268000 BitCount = 71
 281.033685 1  104             Rx   d 6 7F 7D 67 7D 8B 7D  Length = 388000 BitCount = 101
 281.034021 1  107             Rx   d 4 FE 83 E3 7D  Length = 320000 BitCount = 84
 281.043617 1  107             Rx   d 4 FE 83 E3 7D  Length = 320000 BitCount = 84
 281.044021 1  104             Rx   d 6 7F 7D 67 7D 87 7D  Length = 388000 BitCount = 101
 281.044525 1  101             Rx   d 8 00 00 00 00 00 00 00 00  Length = 488000 BitCount = 126
 281.053693 1  104             Rx   d 6 7F 7D 7F 7D 77 7D  Length = 396000 BitCount = 103
 281.054029 1  107             Rx   d 4 FE 83 E3 7D  Length = 320000 BitCount = 84
 281.063621 1  107             Rx   d 4 FE 83 E3 7D  Length = 320000 BitCount = 84
 281.064125 1  101             Rx   d 8 00 00 00 00 00 00 00 00  Length = 488000 BitCount = 126
 281.064541 1  104             Rx   d 6 7F 7D 67 7D 7F 7D  Length = 400000 BitCount = 104
 281.073622 1  107             Rx   d 4 FE 83 E3 7D  Length = 320000 BitCount = 84
 281.074030 1  104             Rx   d 6 7F 7D 77 7D 9B 7D  Length = 392000 BitCount = 102
 281.074430 1  105             Rx   d 6 44 2A 7B 1F 00 00  Length = 384000 BitCount = 100
 281.083750 1  104             Rx   d 6 7F 7D EF 7D 97 7D  Length = 392000 BitCount = 102
 281.084086 1  107             Rx   d 4 FE 83 E3 7D  Length = 320000 BitCount = 84
 281.084590 1  101             Rx   d 8 00 00 00 00 00 00 00 00  Length = 488000 BitCount = 126
 281.093622 1  107             Rx   d 4 FE 83 E3 7D  Length = 320000 BitCount = 84
 281.094034 1  104             Rx   d 6 7F 7D 47 7E 83 7D  Length = 396000 BitCount = 103
 281.103694 1  104             Rx   d 6 7F 7D 27 7E 8B 7D  Length = 392000 BitCount = 102
 281.104198 1  101             Rx   d 8 00 00 00 00 00 00 00 00  Length = 488000 BitCount = 126
 281.104534 1  107             Rx   d 4 FE 83 E3 7D  Length = 320000 BitCount = 84
 281.113618 1  107             Rx   d 4 05 84 E3 7D  Length = 316000 BitCount = 83
 281.114026 1  104             Rx   d 6 7F 7D 37 7E 87 7D  Length = 392000 BitCount = 102
 281.123691 1  104             Rx   d 6 7F 7D 3F 7E 73 7D  Length = 392000 BitCount = 102
 281.124023 1  107             Rx   d 4 05 84 E3 7D  Length = 316000 BitCount = 83
 281.124307 1  103             Rx   d 2 00 00  Length = 268000 BitCount = 71
 281.124811 1  101             Rx   d 8 00 00 00 00 00 00 00 00  Length = 488000 BitCount = 126
 281.133619 1  107             Rx   d 4 05 84 E3 7D  Length = 316000 BitCount = 83
 281.134023 1  104             Rx   d 6 7F 7D D7 7D 6B 7D  Length = 388000 BitCount = 101
 281.143743 1  104             Rx   d 6 7F 7D 77 7D 83 7D  Length = 392000 BitCount = 102
 281.144075 1  107             Rx   d 4 05 84 E3 7D  Length = 316000 BitCount = 83
 281.144579 1  101             Rx   d 8 00 00 00 00 00 00 00 00  Length = 488000 BitCount = 126
 281.153619 1  107             Rx   d 4 FE 83 E3 7D  Length = 320000 BitCount = 84
 281.154031 1  104             Rx   d 6 7F 7D 7F 7D 87 7D  Length = 396000 BitCount = 103
 281.163696 1  104             Rx   d 6 7F 7D 7F 7D 77 7D  Length = 396000 BitCount = 103
 281.164200 1  101             Rx   d 8 00 00 00 00 00 00 00 00  Length = 488000 BitCount = 126
 281.164536 1  107             Rx   d 4 FE 83 E3 7D  Length = 320000 BitCount = 84
 281.173672 1  107             Rx   d 4 FE 83 E3 7D  Length = 320000 BitCount = 84
 281.174076 1  104             Rx   d 6 7F 7D 6F 7D 73 7D  Length = 388000 BitCount = 101
 281.183692 1  104             Rx   d 6 7F 7D AF 7D 7B 7D  Length = 388000 BitCount = 101
 281.184028 1  107             Rx   d 4 FE 83 E3 7D  Length = 320000 BitCount = 84
 281.184532 1  101             Rx   d 8 00 00 00 00 00 00 00 00  Length = 488000 BitCount = 126
 281.193624 1  107             Rx   d 4 FE 83 E3 7D  Length = 320000 BitCount = 84
 281.194032 1  104             Rx   d 6 7F 7D 3F 7E 77 7D  Length = 392000 BitCount = 102
 281.203696 1  104             Rx   d 6 7F 7D 77 7E 7B 7D  Length = 392000 BitCount = 102
 281.204032 1  107             Rx   d 4 FE 83 E3 7D  Length = 320000 BitCount = 84
 281.204536 1  101             Rx   d 8 00 00 00 00 00 00 00 00  Length = 488000 BitCount = 126
 281.213621 1  107             Rx   d 4 05 84 E3 7D  Length = 316000 BitCount = 83
 281.214029 1  104             Rx   d 6 7F 7D 47 7E 7F 7D  Length = 392000 BitCount = 102
 281.223829 1  101             Rx   d 8 00 00 00 00 00 00 00 00  Length = 488000 BitCount = 126
 281.224237 1  104             Rx   d 6 7F 7D 37 7E 7F 7D  Length = 392000 BitCount = 102
 281.224521 1  103             Rx   d 2 00 00  Length = 268000 BitCount = 71
 281.224853 1  107             Rx   d 4 05 84 E3 7D  Length = 316000 BitCount = 83
 281.233617 1  107             Rx   d 4 05 84 E3 7D  Length = 316000 BitCount = 83
 281.234029 1  104             Rx   d 6 7F 7D 1F 7E 6F 7D  Length = 396000 BitCount = 103
 281.243729 1  104             Rx   d 6 7F 7D BF 7D 67 7D  Length = 392000 BitCount = 102
 281.244061 1  107             Rx   d 4 05 84 E3 7D  Length = 316000 BitCount = 83
 281.244565 1  101             Rx   d 8 00 00 00 00 00 00 00 00  Length = 488000 BitCount = 126
 281.253626 1  107             Rx   d 4 FE 83 E3 7D  Length = 320000 BitCount = 84
 281.254034 1  104             Rx   d 6 7F 7D 97 7D 77 7D  Length = 392000 BitCount = 102
 281.263746 1  104             Rx   d 6 7F 7D D7 7D 7F 7D  Length = 392000 BitCount = 102
 281.264250 1  101             Rx   d 8 00 00 00 00 00 00 00 00  Length = 488000 BitCount = 126
 281.264586 1  107             Rx   d 4 FE 83 E3 7D  Length = 320000 BitCount = 84
 281.273622 1  107             Rx   d 4 05 84 E3 7D  Length = 316000 BitCount = 83
 281.274030 1  104             Rx   d 6 7F 7D C7 7D 7B 7D  Length = 392000 BitCount = 102
 281.283754 1  104             Rx   d 6 7F 7D 7F 7D 7F 7D  Length = 396000 BitCount = 103
 281.284258 1  101             Rx   d 8 00 00 00 00 00 00 00 00  Length = 488000 BitCount = 126
 281.284590 1  107             Rx   d 4 05 84 E3 7D  Length = 316000 BitCount = 83
 281.293622 1  107             Rx   d 4 05 84 E3 7D  Length = 316000 BitCount = 83
 281.294034 1  104             Rx   d 6 7F 7D 8F 7D 8B 7D  Length = 396000 BitCount = 103
 281.303755 1  104             Rx   d 6 7F 7D F7 7D 7F 7D  Length = 396000 BitCount = 103
 281.304259 1  101             Rx   d 8 00 00 00 00 00 00 00 00  Length = 488000 BitCount = 126
 281.304591 1  107             Rx   d 4 05 84 E3 7D  Length = 316000 BitCount = 83
 281.313619 1  107             Rx   d 4 05 84 E3 7D  Length = 316000 BitCount = 83
 281.314027 1  104             Rx   d 6 7F 7D 1F 7E 6B 7D  Length = 392000 BitCount = 102
 281.323755 1  104             Rx   d 6 7F 7D 1F 7E 7F 7D  Length = 396000 BitCount = 103
 281.324259 1  101             Rx   d 8 00 00 00 00 00 00 00 00  Length = 488000 BitCount = 126
 281.324591 1  107             Rx   d 4 05 84 E3 7D  Length = 316000 BitCount = 83
 281.324875 1  103             Rx   d 2 00 00  Length = 268000 BitCount = 71
 281.325275 1  105             Rx   d 6 44 2A 7B 1F 00 00  Length = 384000 BitCount = 100
 281.333699 1  104             Rx   d 6 7F 7D 5F 7E 87 7D  Length = 392000 BitCount = 102
 281.334035 1  107             Rx   d 4 FE 83 E3 7D  Length = 320000 BitCount = 84
 281.343628 1  107             Rx   d 4 FE 83 E3 7D  Length = 320000 BitCount = 84
 281.344036 1  104             Rx   d 6 7F 7D 3F 7E 77 7D  Length = 392000 BitCount = 102
 281.344540 1  101             Rx   d 8 00 00 00 00 00 00 00 00  Length = 488000 BitCount = 126
 281.353656 1  107             Rx   d 4 05 84 E3 7D  Length = 316000 BitCount = 83
 281.354060 1  104             Rx   d 6 7F 7D A7 7D 77 7D  Length = 388000 BitCount = 101
 281.363744 1  104             Rx   d 6 7F 7D 67 7D 7F 7D  Length = 400000 BitCount = 104
 281.364248 1  101             Rx   d 8 00 00 00 00 00 00 00 00  Length = 488000 BitCount = 126
 281.364580 1  107             Rx   d 4 05 84 E3 7D  Length = 316000 BitCount = 83
 281.373628 1  107             Rx   d 4 FE 83 E3 7D  Length = 320000 BitCount = 84
 281.374036 1  104             Rx   d 6 7F 7D 6F 7D 7F 7D  Length = 392000 BitCount = 102
 281.383696 1  104             Rx   d 6 7F 7D 77 7D 7B 7D  Length = 392000 BitCount = 102
 281.384032 1  107             Rx   d 4 FE 83 E3 7D  Length = 320000 BitCount = 84
 281.384536 1  101             Rx   d 8 00 00 00 00 00 00 00 00  Length = 488000 BitCount = 126
 281.393673 1  107             Rx   d 4 05 84 E3 7D  Length = 316000 BitCount = 83
 281.394085 1  104             Rx   d 6 7F 7D 7F 7D 7F 7D  Length = 396000 BitCount = 103
 281.403701 1  104             Rx   d 6 7F 7D E7 7D 7F 7D  Length = 392000 BitCount = 102
 281.404033 1  107             Rx   d 4 05 84 E3 7D  Length = 316000 BitCount = 83
 281.404537 1  101             Rx   d 8 00 00 00 00 00 00 00 00  Length = 488000 BitCount = 126
 281.413697 1  104             Rx   d 6 7F 7D 4F 7E 7B 7D  Length = 388000 BitCount = 101
 281.414029 1  107             Rx   d 4 05 84 E3 7D  Length = 316000 BitCount = 83
 281.423653 1  107             Rx   d 4 05 84 E3 7D  Length = 316000 BitCount = 83
 281.424061 1  104             Rx   d 6 7F 7D 47 7E 7F 7D  Length = 392000 BitCount = 102
 281.424345 1  103             Rx   d 2 00 00  Length = 268000 BitCount = 71
 281.424849 1  101             Rx   d 8 00 00 00 00 00 00 00 00  Length = 488000 BitCount = 126
 281.433630 1  107             Rx   d 4 FE 83 E3 7D  Length = 320000 BitCount = 84
 281.434034 1  104             Rx   d 6 7F 7D 17 7E 8F 7D  Length = 388000 BitCount = 101
 281.443702 1  104             Rx   d 6 7F 7D 07 7E 97 7D  Length = 392000 BitCount = 102
 281.444206 1  101             Rx   d 8 00 00 00 00 00 00 00 00  Length = 488000 BitCount = 126
 281.444542 1  107             Rx   d 4 FE 83 E3 7D  Length = 320000 BitCount = 84
 281.453622 1  107             Rx   d 4 05 84 E3 7D  Length = 316000 BitCount = 83
 281.454030 1  104             Rx   d 6 7F 7D D7 7D 7F 7D  Length = 392000 BitCount = 102
 281.463738 1  104             Rx   d 6 7F 7D 7F 7D 77 7D  Length = 396000 BitCount = 103
 281.464070 1  107             Rx   d 4 05 84 E3 7D  Length = 316000 BitCount = 83
 281.464574 1  101             Rx   d 8 00 00 00 00 00 00 00 00  Length = 488000 BitCount = 126
 281.473626 1  107             Rx   d 4 05 84 E3 7D  Length = 316000 BitCount = 83
 281.474034 1  104             Rx   d 6 7F 7D 87 7D 7F 7D  Length = 392000 BitCount = 102
 281.483703 1  104             Rx   d 6 7F 7D B7 7D 77 7D  Length = 392000 BitCount = 102
 281.484035 1  107             Rx   d 4 05 84 E3 7D  Length = 316000 BitCount = 83
 281.484539 1  101             Rx   d 8 00 00 00 00 00 00 00 00  Length = 488000 BitCount = 126
 281.493627 1  107             Rx   d 4 05 84 E3 7D  Length = 316000 BitCount = 83
 281.494031 1  104             Rx   d 6 7F 7D 8F 7D 6F 7D  Length = 388000 BitCount = 101
 281.503743 1  104             Rx   d 6 7F 7D 7F 7D 87 7D  Length = 396000 BitCount = 103
 281.504247 1  101             Rx   d 8 00 00 00 00 00 00 00 00  Length = 488000 BitCount = 126
 281.504579 1  107             Rx   d 4 05 84 E3 7D  Length = 316000 BitCount = 83
 281.513627 1  107             Rx   d 4 05 84 E3 7D  Length = 316000 BitCount = 83
 281.514031 1  104             Rx   d 6 7F 7D E7 7D 93 7D  Length = 388000 BitCount = 101
 281.523708 1  104             Rx   d 6 7F 7D 4F 7E 7F 7D  Length = 400000 BitCount = 104
 281.524040 1  107             Rx   d 4 05 84 E3 7D  Length = 316000 BitCount = 83
 281.524544 1  101             Rx   d 8 00 00 00 00 00 00 00 00  Length = 488000 BitCount = 126
 281.524828 1  103             Rx   d 2 00 00  Length = 268000 BitCount = 71
 281.533704 1  104             Rx   d 6 7F 7D 37 7E 73 7D  Length = 392000 BitCount = 102
 281.534036 1  107             Rx   d 4 05 84 E3 7D  Length = 316000 BitCount = 83
 281.543628 1  107             Rx   d 4 05 84 E3 7D  Length = 316000 BitCount = 83
 281.544132 1  101             Rx   d 8 00 00 00 00 00 00 00 00  Length = 488000 BitCount = 126
 281.544536 1  104             Rx   d 6 7F 7D 0F 7E 87 7D  Length = 388000 BitCount = 101
 281.553736 1  104             Rx   d 6 7F 7D 2F 7E 83 7D  Length = 392000 BitCount = 102
 281.554068 1  107             Rx   d 4 05 84 E3 7D  Length = 316000 BitCount = 83
 281.563624 1  107             Rx   d 4 05 84 E3 7D  Length = 316000 BitCount = 83
 281.564028 1  104             Rx   d 6 7F 7D 0F 7E 7B 7D  Length = 388000 BitCount = 101
 281.564533 1  101             Rx   d 8 00 00 00 00 00 00 00 00  Length = 488000 BitCount = 126
 281.573729 1  105             Rx   d 6 43 2A 7B 1F 00 00  Length = 384000 BitCount = 100
 281.574061 1  107             Rx   d 4 05 84 E3 7D  Length = 316000 BitCount = 83
 281.574469 1  104             Rx   d 6 7F 7D 8F 7D 7F 7D  Length = 392000 BitCount = 102
 281.583705 1  104             Rx   d 6 7F 7D 6F 7D 7F 7D  Length = 392000 BitCount = 102
 281.584037 1  107             Rx   d 4 05 84 E3 7D  Length = 316000 BitCount = 83
 281.584541 1  101             Rx   d 8 00 00 00 00 00 00 00 00  Length = 488000 BitCount = 126
 281.593761 1  104             Rx   d 6 7F 7D 7F 7D 7F 7D  Length = 396000 BitCount = 103
 281.594097 1  107             Rx   d 4 FE 83 E3 7D  Length = 320000 BitCount = 84
 281.603681 1  107             Rx   d 4 FE 83 E3 7D  Length = 320000 BitCount = 84
 281.604089 1  104             Rx   d 6 7F 7D 7F 7D 7B 7D  Length = 392000 BitCount = 102
 281.604593 1  101             Rx   d 8 00 00 00 00 00 00 00 00  Length = 488000 BitCount = 126
 281.613662 1  107             Rx   d 4 05 84 E3 7D  Length = 316000 BitCount = 83
 281.614070 1  104             Rx   d 6 7F 7D 87 7D 7F 7D  Length = 392000 BitCount = 102
 281.623730 1  104             Rx   d 6 7F 7D EF 7D 83 7D  Length = 396000 BitCount = 103
 281.624234 1  101             Rx   d 8 00 00 00 00 00 00 00 00  Length = 488000 BitCount = 126
 281.624518 1  103             Rx   d 2 00 00  Length = 268000 BitCount = 71
 281.624850 1  107             Rx   d 4 05 84 E3 7D  Length = 316000 BitCount = 83
 281.633626 1  107             Rx   d 4 05 84 E3 7D  Length = 316000 BitCount = 83
 281.634038 1  104             Rx   d 6 7F 7D 3F 7E 7F 7D  Length = 396000 BitCount = 103
 281.643782 1  104             Rx   d 6 7F 7D 17 7E 7F 7D  Length = 392000 BitCount = 102
 281.644114 1  107             Rx   d 4 05 84 E3 7D  Length = 316000 BitCount = 83
 281.644618 1  101             Rx   d 8 00 00 00 00 00 00 00 00  Length = 488000 BitCount = 126
 281.653643 1  107             Rx   d 4 FE 83 E3 7D  Length = 320000 BitCount = 84
 281.654055 1  104             Rx   d 6 7F 7D 07 7E 93 7D  Length = 396000 BitCount = 103
 281.663707 1  104             Rx   d 6 7F 7D 1F 7E 97 7D  Length = 392000 BitCount = 102
 281.664211 1  101             Rx   d 8 00 00 00 00 00 00 00 00  Length = 488000 BitCount = 126
 281.664547 1  107             Rx   d 4 FE 83 E3 7D  Length = 320000 BitCount = 84
 281.673631 1  107             Rx   d 4 FE 83 E3 7D  Length = 320000 BitCount = 84
 281.674043 1  104             Rx   d 6 7F 7D E7 7D 83 7D  Length = 396000 BitCount = 103
 281.683719 1  104             Rx   d 6 7F 7D 7F 7D 87 7D  Length = 396000 BitCount = 103
 281.684055 1  107             Rx   d 4 FE 83 E3 7D  Length = 320000 BitCount = 84
 281.684559 1  101             Rx   d 8 00 00 00 00 00 00 00 00  Length = 488000 BitCount = 126
 281.693759 1  104             Rx   d 6 7F 7D 8F 7D 83 7D  Length = 396000 BitCount = 103
 281.694091 1  107             Rx   d 4 05 84 E3 7D  Length = 316000 BitCount = 83
 281.703664 1  107             Rx   d 4 05 84 E3 7D  Length = 316000 BitCount = 83
 281.704168 1  101             Rx   d 8 00 00 00 00 00 00 00 00  Length = 488000 BitCount = 126
 281.704572 1  104             Rx   d 6 7F 7D D7 7D 77 7D  Length = 388000 BitCount = 101
 281.713708 1  104             Rx   d 6 7F 7D B7 7D 7B 7D  Length = 392000 BitCount = 102
 281.714040 1  107             Rx   d 4 05 84 E3 7D  Length = 316000 BitCount = 83
 281.723632 1  107             Rx   d 4 05 84 E3 7D  Length = 316000 BitCount = 83
 281.724048 1  104             Rx   d 6 7F 7D 9F 7D 7B 7D  Length = 400000 BitCount = 104
 281.724552 1  101             Rx   d 8 00 00 00 00 00 00 00 00  Length = 488000 BitCount = 126
 281.724836 1  103             Rx   d 2 00 00  Length = 268000 BitCount = 71
 281.733628 1  107             Rx   d 4 05 84 E3 7D  Length = 316000 BitCount = 83
 281.734036 1  104             Rx   d 6 7F 7D 07 7E 77 7D  Length = 392000 BitCount = 102
 281.743705 1  104             Rx   d 6 7F 7D 47 7E 73 7D  Length = 388000 BitCount = 101
 281.744209 1  101             Rx   d 8 00 00 00 00 00 00 00 00  Length = 488000 BitCount = 126
 281.744541 1  107             Rx   d 4 05 84 E3 7D  Length = 316000 BitCount = 83
 281.753629 1  107             Rx   d 4 05 84 E3 7D  Length = 316000 BitCount = 83
 281.754041 1  104             Rx   d 6 7F 7D 1F 7E 6F 7D  Length = 396000 BitCount = 103
 281.763705 1  104             Rx   d 6 7F 7D 0F 7E 7B 7D  Length = 388000 BitCount = 101
 281.764209 1  101             Rx   d 8 00 00 00 00 00 00 00 00  Length = 488000 BitCount = 126
 281.764541 1  107             Rx   d 4 05 84 E3 7D  Length = 316000 BitCount = 83
 281.773653 1  107             Rx   d 4 05 84 E3 7D  Length = 316000 BitCount = 83
 281.774065 1  104             Rx   d 6 7F 7D 27 7E 7F 7D  Length = 396000 BitCount = 103
 281.783701 1  104             Rx   d 6 7F 7D EF 7D 73 7D  Length = 388000 BitCount = 101
 281.784033 1  107             Rx   d 4 05 84 E3 7D  Length = 316000 BitCount = 83
 281.784537 1  101             Rx   d 8 00 00 00 00 00 00 00 00  Length = 488000 BitCount = 126
 281.793634 1  107             Rx   d 4 05 84 E3 7D  Length = 316000 BitCount = 83
 281.794042 1  104             Rx   d 6 7F 7D A7 7D 83 7D  Length = 392000 BitCount = 102
 281.803670 1  107             Rx   d 4 05 84 E3 7D  Length = 316000 BitCount = 83
 281.804174 1  101             Rx   d 8 00 00 00 00 00 00 00 00  Length = 488000 BitCount = 126
 281.804586 1  104             Rx   d 6 7F 7D BF 7D 7F 7D  Length = 396000 BitCount = 103
 281.813706 1  104             Rx   d 6 7F 7D CF 7D 77 7D  Length = 388000 BitCount = 101
 281.814038 1  107             Rx   d 4 05 84 E3 7D  Length = 316000 BitCount = 83
 281.823638 1  107             Rx   d 4 05 84 E3 7D  Length = 316000 BitCount = 83
 281.824046 1  104             Rx   d 6 7F 7D 8F 7D 7F 7D  Length = 392000 BitCount = 102
 281.824330 1  103             Rx   d 2 00 00  Length = 268000 BitCount = 71
 281.824834 1  101             Rx   d 8 00 00 00 00 00 00 00 00  Length = 488000 BitCount = 126
 281.825234 1  105             Rx   d 6 44 2A 97 1F 00 00  Length = 384000 BitCount = 100
 281.833639 1  107             Rx   d 4 05 84 E3 7D  Length = 316000 BitCount = 83
 281.834051 1  104             Rx   d 6 7F 7D 8F 7D 83 7D  Length = 396000 BitCount = 103
 281.843767 1  104             Rx   d 6 7F 7D F7 7D 7F 7D  Length = 396000 BitCount = 103
 281.844099 1  107             Rx   d 4 05 84 E3 7D  Length = 316000 BitCount = 83
 281.844603 1  101             Rx   d 8 00 00 00 00 00 00 00 00  Length = 488000 BitCount = 126
 281.853635 1  107             Rx   d 4 05 84 E3 7D  Length = 316000 BitCount = 83
 281.854043 1  104             Rx   d 6 7F 7D 2F 7E 7B 7D  Length = 392000 BitCount = 102
 281.863735 1  104             Rx   d 6 7F 7D FF 7D 7F 7D  Length = 400000 BitCount = 104
 281.864067 1  107             Rx   d 4 05 84 E3 7D  Length = 316000 BitCount = 83
 281.864571 1  101             Rx   d 8 00 00 00 00 00 00 00 00  Length = 488000 BitCount = 126
 281.873683 1  107             Rx   d 4 05 84 E3 7D  Length = 316000 BitCount = 83
 281.874095 1  104             Rx   d 6 7F 7D FF 7D 83 7D  Length = 396000 BitCount = 103
 281.883724 1  104             Rx   d 6 7F 7D 27 7E 77 7D  Length = 392000 BitCount = 102
 281.884056 1  107             Rx   d 4 05 84 E3 7D  Length = 316000 BitCount = 83
 281.884560 1  101             Rx   d 8 00 00 00 00 00 00 00 00  Length = 488000 BitCount = 126
 281.893712 1  104             Rx   d 6 7F 7D FF 7D 77 7D  Length = 396000 BitCount = 103
 281.894044 1  107             Rx   d 4 05 84 E3 7D  Length = 316000 BitCount = 83
 281.903632 1  107             Rx   d 4 05 84 E3 7D  Length = 316000 BitCount = 83
 281.904036 1  104             Rx   d 6 7F 7D CF 7D 93 7D  Length = 388000 BitCount = 101
 281.904540 1  101             Rx   d 8 00 00 00 00 00 00 00 00  Length = 488000 BitCount = 126
 281.913636 1  107             Rx   d 4 05 84 E3 7D  Length = 316000 BitCount = 83
 281.914048 1  104             Rx   d 6 7F 7D FF 7D 9F 7D  Length = 396000 BitCount = 103
 281.923721 1  104             Rx   d 6 7F 7D 07 7E 83 7D  Length = 400000 BitCount = 104
 281.924225 1  101             Rx   d 8 00 00 00 00 00 00 00 00  Length = 488000 BitCount = 126
 281.924557 1  107             Rx   d 4 05 84 E3 7D  Length = 316000 BitCount = 83
 281.924841 1  103             Rx   d 2 00 00  Length = 268000 BitCount = 71
 281.933741 1  104             Rx   d 6 7F 7D AF 7D 7B 7D  Length = 388000 BitCount = 101
 281.934073 1  107             Rx   d 4 05 84 E3 7D  Length = 316000 BitCount = 83
 281.943637 1  107             Rx   d 4 05 84 E3 7D  Length = 316000 BitCount = 83
 281.944045 1  104             Rx   d 6 7F 7D B7 7D 7B 7D  Length = 392000 BitCount = 102
 281.944549 1  101             Rx   d 8 00 00 00 00 00 00 00 00  Length = 488000 BitCount = 126
 281.953717 1  104             Rx   d 6 7F 7D 2F 7E 7F 7D  Length = 392000 BitCount = 102
 281.954049 1  107             Rx   d 4 05 84 E3 7D  Length = 316000 BitCount = 83
 281.963845 1  101             Rx   d 8 00 00 00 00 00 00 00 00  Length = 488000 BitCount = 126
 281.964177 1  107             Rx   d 4 05 84 E3 7D  Length = 316000 BitCount = 83
 281.964589 1  104             Rx   d 6 7F 7D 57 7E 83 7D  Length = 396000 BitCount = 103
 281.973710 1  104             Rx   d 6 7F 7D 37 7E 83 7D  Length = 392000 BitCount = 102
 281.974042 1  107             Rx   d 4 05 84 E3 7D  Length = 316000 BitCount = 83
 281.983670 1  107             Rx   d 4 05 84 E3 7D  Length = 316000 BitCount = 83
 281.984086 1  104             Rx   d 6 7F 7D 6F 7E 7F 7D  Length = 400000 BitCount = 104
 281.984590 1  101             Rx   d 8 00 00 00 00 00 00 00 00  Length = 488000 BitCount = 126
 281.993718 1  104             Rx   d 6 7F 7D A7 7E 7F 7D  Length = 396000 BitCount = 103
 281.994050 1  107             Rx   d 4 05 84 E3 7D  Length = 316000 BitCount = 83
 282.003726 1  107             Rx   d 4 05 84 E3 7D  Length = 316000 BitCount = 83
 282.004130 1  104             Rx   d 6 7F 7D 4F 7E 6B 7D  Length = 388000 BitCount = 101
 282.004634 1  101             Rx   d 8 00 00 00 00 00 00 00 00  Length = 488000 BitCount = 126
 282.005563 1  Statistic: D 264 R 0 XD 0 XR 0 E 0 O 0 B 10.38%
 282.013711 1  104             Rx   d 6 7F 7D D7 7D 77 7D  Length = 388000 BitCount = 101
 282.014043 1  107             Rx   d 4 05 84 E3 7D  Length = 316000 BitCount = 83
 282.023639 1  107             Rx   d 4 05 84 E3 7D  Length = 316000 BitCount = 83
 282.024143 1  101             Rx   d 8 00 00 00 00 00 00 00 00  Length = 488000 BitCount = 126
 282.024559 1  104             Rx   d 6 7F 7D BF 7D 93 7D  Length = 400000 BitCount = 104
 282.024843 1  103             Rx   d 2 00 00  Length = 268000 BitCount = 71
 282.033719 1  104             Rx   d 6 7F 7D B7 7D 83 7D  Length = 396000 BitCount = 103
 282.034051 1  107             Rx   d 4 05 84 E3 7D  Length = 316000 BitCount = 83
 282.043703 1  107             Rx   d 4 05 84 E3 7D  Length = 316000 BitCount = 83
 282.044111 1  104             Rx   d 6 7F 7D 97 7D 77 7D  Length = 392000 BitCount = 102
 282.044615 1  101             Rx   d 8 00 00 00 00 00 00 00 00  Length = 488000 BitCount = 126
 282.053715 1  104             Rx   d 6 7F 7D E7 7D 73 7D  Length = 392000 BitCount = 102
 282.054047 1  107             Rx   d 4 05 84 E3 7D  Length = 316000 BitCount = 83
 282.063640 1  107             Rx   d 4 05 84 E3 7D  Length = 316000 BitCount = 83
 282.064144 1  101             Rx   d 8 00 00 00 00 00 00 00 00  Length = 488000 BitCount = 126
 282.064548 1  104             Rx   d 6 7F 7D 67 7E 77 7D  Length = 388000 BitCount = 101
 282.073644 1  107             Rx   d 4 FE 83 E3 7D  Length = 320000 BitCount = 84
 282.074052 1  104             Rx   d 6 7F 7D 87 7E 7F 7D  Length = 392000 BitCount = 102
 282.074452 1  105             Rx   d 6 44 2A 9B 1F 00 00  Length = 384000 BitCount = 100
 282.083652 1  107             Rx   d 4 FE 83 E3 7D  Length = 320000 BitCount = 84
 282.084056 1  104             Rx   d 6 7F 7D 6F 7E 87 7D  Length = 388000 BitCount = 101
 282.084560 1  101             Rx   d 8 00 00 00 00 00 00 00 00  Length = 488000 BitCount = 126
 282.093716 1  104             Rx   d 6 7F 7D 8F 7E 93 7D  Length = 392000 BitCount = 102
 282.094048 1  107             Rx   d 4 05 84 E3 7D  Length = 316000 BitCount = 83
 282.103653 1  107             Rx   d 4 05 84 E3 7D  Length = 316000 BitCount = 83
 282.104157 1  101             Rx   d 8 00 00 00 00 00 00 00 00  Length = 488000 BitCount = 126
 282.104565 1  104             Rx   d 6 7F 7D 8F 7E 7F 7D  Length = 392000 BitCount = 102
 282.113645 1  107             Rx   d 4 FE 83 E3 7D  Length = 320000 BitCount = 84
 282.114057 1  104             Rx   d 6 7F 7D 1F 7E 7F 7D  Length = 396000 BitCount = 103
 282.123697 1  107             Rx   d 4 FE 83 E3 7D  Length = 320000 BitCount = 84
 282.123981 1  103             Rx   d 2 00 00  Length = 268000 BitCount = 71
 282.124485 1  101             Rx   d 8 00 00 00 00 00 00 00 00  Length = 488000 BitCount = 126
 282.124893 1  104             Rx   d 6 7F 7D D7 7D 83 7D  Length = 392000 BitCount = 102
 282.133749 1  104             Rx   d 6 7F 7D D7 7D 7F 7D  Length = 392000 BitCount = 102
 282.134085 1  107             Rx   d 4 FE 83 E3 7D  Length = 320000 BitCount = 84
 282.143645 1  107             Rx   d 4 FE 83 E3 7D  Length = 320000 BitCount = 84
 282.144149 1  101             Rx   d 8 00 00 00 00 00 00 00 00  Length = 488000 BitCount = 126
 282.144558 1  104             Rx   d 6 7F 7D A7 7D 7B 7D  Length = 392000 BitCount = 102
 282.153762 1  104             Rx   d 6 7F 7D 4F 7D 7F 7D  Length = 392000 BitCount = 102
 282.154098 1  107             Rx   d 4 FE 83 E3 7D  Length = 320000 BitCount = 84
 282.163642 1  107             Rx   d 4 FE 83 E3 7D  Length = 320000 BitCount = 84
 282.164046 1  104             Rx   d 6 7F 7D 8F 7D 93 7D  Length = 388000 BitCount = 101
 282.164550 1  101             Rx   d 8 00 00 00 00 00 00 00 00  Length = 488000 BitCount = 126
 282.173758 1  104             Rx   d 6 7F 7D 1F 7E 7F 7D  Length = 396000 BitCount = 103
 282.174094 1  107             Rx   d 4 FE 83 E3 7D  Length = 320000 BitCount = 84
 282.183638 1  107             Rx   d 4 FE 83 E3 7D  Length = 320000 BitCount = 84
 282.184046 1  104             Rx   d 6 7F 7D 37 7E 73 7D  Length = 392000 BitCount = 102
 282.184550 1  101             Rx   d 8 00 00 00 00 00 00 00 00  Length = 488000 BitCount = 126
 282.193679 1  107             Rx   d 4 FE 83 E3 7D  Length = 320000 BitCount = 84
 282.194083 1  104             Rx   d 6 7F 7D 27 7E 87 7D  Length = 388000 BitCount = 101
 282.203743 1  104             Rx   d 6 7F 7D 37 7E 8B 7D  Length = 388000 BitCount = 101
 282.204247 1  101             Rx   d 8 00 00 00 00 00 00 00 00  Length = 488000 BitCount = 126
 282.204583 1  107             Rx   d 4 FE 83 E3 7D  Length = 320000 BitCount = 84
 282.213695 1  107             Rx   d 4 FE 83 E3 7D  Length = 320000 BitCount = 84
 282.214107 1  104             Rx   d 6 7F 7D 1F 7E 7F 7D  Length = 396000 BitCount = 103
 282.223763 1  104             Rx   d 6 7F 7D 9F 7D 87 7D  Length = 396000 BitCount = 103
 282.224099 1  107             Rx   d 4 FE 83 E3 7D  Length = 320000 BitCount = 84
 282.224603 1  101             Rx   d 8 00 00 00 00 00 00 00 00  Length = 488000 BitCount = 126
 282.224887 1  103             Rx   d 2 00 00  Length = 268000 BitCount = 71
 282.233639 1  107             Rx   d 4 05 84 E3 7D  Length = 316000 BitCount = 83
 282.234048 1  104             Rx   d 6 7F 7D 67 7D 97 7D  Length = 392000 BitCount = 102
 282.243688 1  107             Rx   d 4 05 84 E3 7D  Length = 316000 BitCount = 83
 282.244192 1  101             Rx   d 8 00 00 00 00 00 00 00 00  Length = 488000 BitCount = 126
 282.244604 1  104             Rx   d 6 7F 7D 9F 7D 8B 7D  Length = 396000 BitCount = 103
 282.253732 1  104             Rx   d 6 7F 7D AF 7D 7F 7D  Length = 392000 BitCount = 102
 282.254064 1  107             Rx   d 4 05 84 E3 7D  Length = 316000 BitCount = 83
 282.263700 1  107             Rx   d 4 05 84 E3 7D  Length = 316000 BitCount = 83
 282.264204 1  101             Rx   d 8 00 00 00 00 00 00 00 00  Length = 488000 BitCount = 126
 282.264612 1  104             Rx   d 6 7F 7D A7 7D 7F 7D  Length = 392000 BitCount = 102
 282.273812 1  104             Rx   d 6 7F 7D EF 7D 93 7D  Length = 396000 BitCount = 103
 282.274148 1  107             Rx   d 4 FE 83 E3 7D  Length = 320000 BitCount = 84
 282.283653 1  107             Rx   d 4 FE 83 E3 7D  Length = 320000 BitCount = 84
 282.284157 1  101             Rx   d 8 00 00 00 00 00 00 00 00  Length = 488000 BitCount = 126
 282.284565 1  104             Rx   d 6 7F 7D 3F 7E 8F 7D  Length = 392000 BitCount = 102
 282.293721 1  104             Rx   d 6 7F 7D 3F 7E 8B 7D  Length = 392000 BitCount = 102
 282.294057 1  107             Rx   d 4 FE 83 E3 7D  Length = 320000 BitCount = 84
 282.303653 1  107             Rx   d 4 FE 83 E3 7D  Length = 320000 BitCount = 84
 282.304057 1  104             Rx   d 6 7F 7D 27 7E 97 7D  Length = 388000 BitCount = 101
 282.304561 1  101             Rx   d 8 00 00 00 00 00 00 00 00  Length = 488000 BitCount = 126
 282.313773 1  104             Rx   d 6 7F 7D 4F 7E 83 7D  Length = 392000 BitCount = 102
 282.314105 1  107             Rx   d 4 05 84 E3 7D  Length = 316000 BitCount = 83
 282.323646 1  107             Rx   d 4 05 84 E3 7D  Length = 316000 BitCount = 83
 282.324050 1  104             Rx   d 6 7F 7D 4F 7E 7B 7D  Length = 388000 BitCount = 101
 282.324334 1  103             Rx   d 2 00 00  Length = 268000 BitCount = 71
 282.324838 1  101             Rx   d 8 00 00 00 00 00 00 00 00  Length = 488000 BitCount = 126
 282.325238 1  105             Rx   d 6 44 2A 7B 1F 00 00  Length = 384000 BitCount = 100
 282.333714 1  107             Rx   d 4 FE 83 E3 7D  Length = 320000 BitCount = 84
 282.334126 1  104             Rx   d 6 7F 7D 07 7E 8B 7D  Length = 396000 BitCount = 103
 282.343738 1  104             Rx   d 6 7F 7D EF 7D 8F 7D  Length = 388000 BitCount = 101
 282.344074 1  107             Rx   d 4 FE 83 E3 7D  Length = 320000 BitCount = 84
 282.344578 1  101             Rx   d 8 00 00 00 00 00 00 00 00  Length = 488000 BitCount = 126
 282.353762 1  104             Rx   d 6 7F 7D FF 7D 7F 7D  Length = 400000 BitCount = 104
 282.354098 1  107             Rx   d 4 FE 83 E3 7D  Length = 320000 BitCount = 84
 282.363650 1  107             Rx   d 4 FE 83 E3 7D  Length = 320000 BitCount = 84
 282.364154 1  101             Rx   d 8 00 00 00 00 00 00 00 00  Length = 488000 BitCount = 126
 282.364558 1  104             Rx   d 6 7F 7D D7 7D 77 7D  Length = 388000 BitCount = 101
 282.373727 1  104             Rx   d 6 7F 7D 9F 7D 7F 7D  Length = 400000 BitCount = 104
 282.374059 1  107             Rx   d 4 F7 83 E3 7D  Length = 316000 BitCount = 83
 282.383651 1  107             Rx   d 4 F7 83 E3 7D  Length = 316000 BitCount = 83
 282.384063 1  104             Rx   d 6 7F 7D F7 7D 7F 7D  Length = 396000 BitCount = 103
 282.384567 1  101             Rx   d 8 00 00 00 00 00 00 00 00  Length = 488000 BitCount = 126
 282.393771 1  104             Rx   d 6 7F 7D 47 7E 7F 7D  Length = 392000 BitCount = 102
 282.394107 1  107             Rx   d 4 E9 83 E1 7D  Length = 320000 BitCount = 84
 282.403675 1  107             Rx   d 4 E9 83 E1 7D  Length = 320000 BitCount = 84
 282.404087 1  104             Rx   d 6 7F 7D 1F 7E 77 7D  Length = 396000 BitCount = 103
 282.404591 1  101             Rx   d 8 00 00 00 00 00 00 00 00  Length = 488000 BitCount = 126
 282.413652 1  107             Rx   d 4 E9 83 E1 7D  Length = 320000 BitCount = 84
 282.414064 1  104             Rx   d 6 7F 7D 07 7E 7F 7D  Length = 396000 BitCount = 103
 282.423724 1  104             Rx   d 6 7F 7D 1F 7E 8B 7D  Length = 392000 BitCount = 102
 282.424068 1  107             Rx   d 4 E9 83 DF 7D  Length = 328000 BitCount = 86
 282.424572 1  101             Rx   d 8 00 00 00 00 00 00 00 00  Length = 488000 BitCount = 126
 282.424856 1  103             Rx   d 2 00 00  Length = 268000 BitCount = 71
 282.433772 1  104             Rx   d 6 7F 7D FF 7D 7B 7D  Length = 392000 BitCount = 102
 282.434108 1  107             Rx   d 4 E2 83 DF 7D  Length = 320000 BitCount = 84
 282.443684 1  107             Rx   d 4 E2 83 DF 7D  Length = 320000 BitCount = 84
 282.444088 1  104             Rx   d 6 7F 7D 97 7D 7B 7D  Length = 388000 BitCount = 101
 282.444592 1  101             Rx   d 8 00 00 00 00 00 00 00 00  Length = 488000 BitCount = 126
 282.453712 1  107             Rx   d 4 E2 83 DF 7D  Length = 320000 BitCount = 84
 282.454120 1  104             Rx   d 6 7F 7D 7F 7D 93 7D  Length = 392000 BitCount = 102
 282.463721 1  104             Rx   d 6 7F 7D 9F 7D 93 7D  Length = 392000 BitCount = 102
 282.464225 1  101             Rx   d 8 00 00 00 00 00 00 00 00  Length = 488000 BitCount = 126
 282.464561 1  107             Rx   d 4 E2 83 DF 7D  Length = 320000 BitCount = 84
 282.473661 1  107             Rx   d 4 E2 83 DF 7D  Length = 320000 BitCount = 84
 282.474069 1  104             Rx   d 6 7F 7D 8F 7D 7F 7D  Length = 392000 BitCount = 102
 282.483713 1  104             Rx   d 6 7F 7D 87 7D 7F 7D  Length = 392000 BitCount = 102
 282.484217 1  101             Rx   d 8 00 00 00 00 00 00 00 00  Length = 488000 BitCount = 126
 282.484553 1  107             Rx   d 4 E2 83 DF 7D  Length = 320000 BitCount = 84
 282.493729 1  104             Rx   d 6 7F 7D FF 7D 83 7D  Length = 396000 BitCount = 103
 282.494065 1  107             Rx   d 4 DB 83 DF 7D  Length = 320000 BitCount = 84
 282.503850 1  101             Rx   d 8 00 00 00 00 00 00 00 00  Length = 488000 BitCount = 126
 282.504254 1  104             Rx   d 6 7F 7D 57 7E 73 7D  Length = 388000 BitCount = 101
 282.504590 1  107             Rx   d 4 DB 83 DF 7D  Length = 320000 BitCount = 84
 282.513650 1  107             Rx   d 4 CD 83 DD 7D  Length = 316000 BitCount = 83
 282.514054 1  104             Rx   d 6 7F 7D 47 7E 6B 7D  Length = 388000 BitCount = 101
 282.523698 1  107             Rx   d 4 CD 83 DD 7D  Length = 316000 BitCount = 83
 282.524110 1  104             Rx   d 6 7F 7D 27 7E 7F 7D  Length = 396000 BitCount = 103
 282.524614 1  101             Rx   d 8 00 00 00 00 00 00 00 00  Length = 488000 BitCount = 126
 282.524898 1  103             Rx   d 2 00 00  Length = 268000 BitCount = 71
 282.533742 1  104             Rx   d 6 7F 7D 47 7E 83 7D  Length = 396000 BitCount = 103
 282.534078 1  107             Rx   d 4 BF 83 DD 7D  Length = 320000 BitCount = 84
 282.543650 1  107             Rx   d 4 BF 83 DB 7D  Length = 320000 BitCount = 84
 282.544062 1  104             Rx   d 6 7F 7D 1F 7E 7F 7D  Length = 396000 BitCount = 103
 282.544566 1  101             Rx   d 8 00 00 00 00 00 00 00 00  Length = 488000 BitCount = 126
 282.553719 1  104             Rx   d 6 7F 7D C7 7D 83 7D  Length = 392000 BitCount = 102
 282.554051 1  107             Rx   d 4 B1 83 DB 7D  Length = 316000 BitCount = 83
 282.563815 1  104             Rx   d 6 7F 7D CF 7D 83 7D  Length = 396000 BitCount = 103
 282.564319 1  101             Rx   d 8 00 00 00 00 00 00 00 00  Length = 488000 BitCount = 126
 282.564655 1  107             Rx   d 4 B1 83 D9 7D  Length = 320000 BitCount = 84
 282.573663 1  107             Rx   d 4 9C 83 D9 7D  Length = 320000 BitCount = 84
 282.574063 1  105             Rx   d 6 44 2A 8D 1F 00 00  Length = 384000 BitCount = 100
 282.574471 1  104             Rx   d 6 7F 7D F7 7D 7B 7D  Length = 392000 BitCount = 102
 282.583775 1  104             Rx   d 6 7F 7D D7 7D 7B 7D  Length = 388000 BitCount = 101
 282.584107 1  107             Rx   d 4 9C 83 D7 7D  Length = 316000 BitCount = 83
 282.584611 1  101             Rx   d 8 00 00 00 00 00 00 00 00  Length = 488000 BitCount = 126
 282.593740 1  104             Rx   d 6 7F 7D C7 7D 7F 7D  Length = 392000 BitCount = 102
 282.594080 1  107             Rx   d 4 80 83 D7 7D  Length = 324000 BitCount = 85
 282.603656 1  107             Rx   d 4 80 83 D5 7D  Length = 320000 BitCount = 84
 282.604064 1  104             Rx   d 6 7F 7D 47 7E 7F 7D  Length = 392000 BitCount = 102
 282.604568 1  101             Rx   d 8 00 00 00 00 00 00 00 00  Length = 488000 BitCount = 126
 282.613708 1  107             Rx   d 4 56 83 D5 7D  Length = 316000 BitCount = 83
 282.614116 1  104             Rx   d 6 7F 7D 8F 7E 7B 7D  Length = 392000 BitCount = 102
 282.623728 1  104             Rx   d 6 7F 7D 77 7E 7B 7D  Length = 392000 BitCount = 102
 282.624060 1  107             Rx   d 4 56 83 D5 7D  Length = 316000 BitCount = 83
 282.624564 1  101             Rx   d 8 00 00 00 00 00 00 00 00  Length = 488000 BitCount = 126
 282.624848 1  103             Rx   d 2 00 00  Length = 268000 BitCount = 71
 282.633656 1  107             Rx   d 4 17 83 D1 7D  Length = 320000 BitCount = 84
 282.634064 1  104             Rx   d 6 7F 7D 6F 7E 83 7D  Length = 392000 BitCount = 102
 282.643857 1  101             Rx   d 8 00 00 00 00 00 00 00 00  Length = 488000 BitCount = 126
 282.644197 1  107             Rx   d 4 17 83 CF 7D  Length = 324000 BitCount = 85
 282.644605 1  104             Rx   d 6 7F 7D 8F 7E 7F 7D  Length = 392000 BitCount = 102
 282.653725 1  104             Rx   d 6 7F 7D 47 7E 73 7D  Length = 388000 BitCount = 101
 282.654057 1  107             Rx   d 4 BC 82 CB 7D  Length = 316000 BitCount = 83
 282.663777 1  104             Rx   d 6 7F 7D B7 7D 77 7D  Length = 392000 BitCount = 102
 282.664105 1  107             Rx   d 4 BC 82 C7 7D  Length = 312000 BitCount = 82
 282.664609 1  101             Rx   d 8 00 00 00 00 00 00 00 00  Length = 488000 BitCount = 126
 282.673689 1  107             Rx   d 4 4C 82 C3 7D  Length = 312000 BitCount = 82
 282.674101 1  104             Rx   d 6 7F 7D 97 7D 7F 7D  Length = 396000 BitCount = 103
 282.683766 1  104             Rx   d 6 7F 7D 97 7D 7B 7D  Length = 388000 BitCount = 101
 282.684270 1  101             Rx   d 8 00 00 00 00 00 00 00 00  Length = 488000 BitCount = 126
 282.684602 1  107             Rx   d 4 4C 82 BD 7D  Length = 316000 BitCount = 83
 282.693682 1  107             Rx   d 4 AB 81 B5 7D  Length = 312000 BitCount = 82
 282.694090 1  104             Rx   d 6 7F 7D 7F 7D 7B 7D  Length = 392000 BitCount = 102
 282.703730 1  104             Rx   d 6 7F 7D 8F 7D 8F 7D  Length = 392000 BitCount = 102
 282.704234 1  101             Rx   d 8 00 00 00 00 00 00 00 00  Length = 488000 BitCount = 126
 282.704566 1  107             Rx   d 4 AB 81 AF 7D  Length = 316000 BitCount = 83
 282.713662 1  107             Rx   d 4 F5 80 A7 7D  Length = 312000 BitCount = 82
 282.714070 1  104             Rx   d 6 7F 7D 0F 7E 97 7D  Length = 392000 BitCount = 102
 282.723758 1  104             Rx   d 6 7F 7D 57 7E 8B 7D  Length = 392000 BitCount = 102
 282.724262 1  101             Rx   d 8 00 00 00 00 00 00 00 00  Length = 488000 BitCount = 126
 282.724546 1  103             Rx   d 2 00 00  Length = 268000 BitCount = 71
 282.724879 1  107             Rx   d 4 F5 80 9F 7D  Length = 316000 BitCount = 83
 282.733687 1  107             Rx   d 4 23 80 93 7D  Length = 316000 BitCount = 83
 282.734095 1  104             Rx   d 6 7F 7D 37 7E 87 7D  Length = 392000 BitCount = 102
 282.743731 1  104             Rx   d 6 7F 7D 0F 7E 7F 7D  Length = 392000 BitCount = 102
 282.744059 1  107             Rx   d 4 23 80 89 7D  Length = 312000 BitCount = 82
 282.744563 1  101             Rx   d 8 00 00 00 00 00 00 00 00  Length = 488000 BitCount = 126
 282.753703 1  107             Rx   d 4 43 7F 7F 7D  Length = 316000 BitCount = 83
 282.754107 1  104             Rx   d 6 7F 7D 0F 7E 7B 7D  Length = 388000 BitCount = 101
 282.763743 1  104             Rx   d 6 7F 7D BF 7D 7F 7D  Length = 396000 BitCount = 103
 282.764071 1  107             Rx   d 4 43 7F 73 7D  Length = 312000 BitCount = 82
 282.764575 1  101             Rx   d 8 00 00 00 00 00 00 00 00  Length = 488000 BitCount = 126
 282.773732 1  104             Rx   d 6 7F 7D 7F 7D 8B 7D  Length = 396000 BitCount = 103
 282.774064 1  107             Rx   d 4 5C 7E 69 7D  Length = 316000 BitCount = 83
 282.783640 1  107             Rx   d 4 5C 7E 61 7D  Length = 316000 BitCount = 83
 282.784044 1  104             Rx   d 6 7F 7D A7 7D 9B 7D  Length = 388000 BitCount = 101
 282.784548 1  101             Rx   d 8 00 00 00 00 00 00 00 00  Length = 488000 BitCount = 126
 282.793784 1  104             Rx   d 6 7F 7D CF 7D 93 7D  Length = 388000 BitCount = 101
 282.794112 1  107             Rx   d 4 75 7D 55 7D  Length = 312000 BitCount = 82
 282.803708 1  107             Rx   d 4 75 7D 49 7D  Length = 312000 BitCount = 82
 282.804116 1  104             Rx   d 6 7F 7D A7 7D 83 7D  Length = 392000 BitCount = 102
 282.804620 1  101             Rx   d 8 00 00 00 00 00 00 00 00  Length = 488000 BitCount = 126
 282.813660 1  107             Rx   d 4 AA 7C 3F 7D  Length = 320000 BitCount = 84
 282.814068 1  104             Rx   d 6 7F 7D AF 7D 8B 7D  Length = 392000 BitCount = 102
 282.823725 1  104             Rx   d 6 7F 7D EF 7D 87 7D  Length = 388000 BitCount = 101
 282.824229 1  101             Rx   d 8 00 00 00 00 00 00 00 00  Length = 488000 BitCount = 126
 282.824561 1  107             Rx   d 4 AA 7C 33 7D  Length = 316000 BitCount = 83
 282.824845 1  103             Rx   d 2 00 00  Length = 268000 BitCount = 71
 282.825245 1  105             Rx   d 6 44 2A 9B 1F 00 00  Length = 384000 BitCount = 100
 282.833697 1  107             Rx   d 4 ED 7B 29 7D  Length = 308000 BitCount = 81
 282.834105 1  104             Rx   d 6 7F 7D E7 7D 73 7D  Length = 392000 BitCount = 102
 282.843729 1  104             Rx   d 6 7F 7D C7 7D 7B 7D  Length = 392000 BitCount = 102
 282.844233 1  101             Rx   d 8 00 00 00 00 00 00 00 00  Length = 488000 BitCount = 126
 282.844561 1  107             Rx   d 4 ED 7B 1F 7D  Length = 312000 BitCount = 82
 282.853741 1  104             Rx   d 6 7F 7D 1F 7E 83 7D  Length = 400000 BitCount = 104
 282.854069 1  107             Rx   d 4 5A 7B 17 7D  Length = 312000 BitCount = 82
 282.863866 1  101             Rx   d 8 00 00 00 00 00 00 00 00  Length = 488000 BitCount = 126
 282.864190 1  107             Rx   d 4 5A 7B 0F 7D  Length = 308000 BitCount = 81
 282.864602 1  104             Rx   d 6 7F 7D 7F 7E 7F 7D  Length = 396000 BitCount = 103
 282.873750 1  104             Rx   d 6 7F 7D 4F 7E 7F 7D  Length = 400000 BitCount = 104
 282.874078 1  107             Rx   d 4 DC 7A 07 7D  Length = 312000 BitCount = 82
 282.883714 1  107             Rx   d 4 DC 7A FF 7C  Length = 324000 BitCount = 85
 282.884130 1  104             Rx   d 6 7F 7D DF 7D 83 7D  Length = 400000 BitCount = 104
 282.884634 1  101             Rx   d 8 00 00 00 00 00 00 00 00  Length = 488000 BitCount = 126
 282.893734 1  104             Rx   d 6 7F 7D B7 7D 7B 7D  Length = 392000 BitCount = 102
 282.894062 1  107             Rx   d 4 9D 7A FB 7C  Length = 312000 BitCount = 82
 282.903735 1  107             Rx   d 4 9D 7A F7 7C  Length = 312000 BitCount = 82
 282.904147 1  104             Rx   d 6 7F 7D 97 7D 5B 7D  Length = 396000 BitCount = 103
 282.904651 1  101             Rx   d 8 00 00 00 00 00 00 00 00  Length = 488000 BitCount = 126
 282.913735 1  104             Rx   d 6 7F 7D 67 7D 63 7D  Length = 392000 BitCount = 102
 282.914059 1  107             Rx   d 4 7A 7A F3 7C  Length = 308000 BitCount = 81
 282.923659 1  107             Rx   d 4 7A 7A EF 7C  Length = 316000 BitCount = 83
 282.924163 1  101             Rx   d 8 00 00 00 00 00 00 00 00  Length = 488000 BitCount = 126
 282.924575 1  104             Rx   d 6 7F 7D 8F 7D 83 7D  Length = 396000 BitCount = 103
 282.924859 1  103             Rx   d 2 00 00  Length = 268000 BitCount = 71
 282.933739 1  104             Rx   d 6 7F 7D 1F 7E 7F 7D  Length = 396000 BitCount = 103
 282.934067 1  107             Rx   d 4 81 7A ED 7C  Length = 312000 BitCount = 82
 282.943655 1  107             Rx   d 4 81 7A ED 7C  Length = 312000 BitCount = 82
 282.944071 1  104             Rx   d 6 7F 7D 6F 7E 7F 7D  Length = 400000 BitCount = 104
 282.944575 1  101             Rx   d 8 00 00 00 00 00 00 00 00  Length = 488000 BitCount = 126
 282.953728 1  104             Rx   d 6 7F 7D 67 7E 8B 7D  Length = 388000 BitCount = 101
 282.954052 1  107             Rx   d 4 9D 7A ED 7C  Length = 308000 BitCount = 81
 282.963676 1  107             Rx   d 4 9D 7A ED 7C  Length = 308000 BitCount = 81
 282.964180 1  101             Rx   d 8 00 00 00 00 00 00 00 00  Length = 488000 BitCount = 126
 282.964584 1  104             Rx   d 6 7F 7D 67 7E 8F 7D  Length = 388000 BitCount = 101
 282.973652 1  107             Rx   d 4 D5 7A ED 7C  Length = 308000 BitCount = 81
 282.974056 1  104             Rx   d 6 7F 7D 57 7E 77 7D  Length = 388000 BitCount = 101
 282.983700 1  107             Rx   d 4 D5 7A ED 7C  Length = 308000 BitCount = 81
 282.984204 1  101             Rx   d 8 00 00 00 00 00 00 00 00  Length = 488000 BitCount = 126
 282.984612 1  104             Rx   d 6 7F 7D E7 7D 6B 7D  Length = 392000 BitCount = 102
 282.993769 1  104             Rx   d 6 7F 7D 8F 7D 6F 7D  Length = 388000 BitCount = 101
 282.994105 1  107             Rx   d 4 0D 7B ED 7C  Length = 320000 BitCount = 84
 283.003701 1  107             Rx   d 4 0D 7B ED 7C  Length = 320000 BitCount = 84
 283.004205 1  101             Rx   d 8 00 00 00 00 00 00 00 00  Length = 488000 BitCount = 126
 283.004613 1  104             Rx   d 6 7F 7D A7 7D 7B 7D  Length = 392000 BitCount = 102
 283.005563 1  Statistic: D 264 R 0 XD 0 XR 0 E 0 O 0 B 10.37%
 283.013769 1  104             Rx   d 6 7F 7D A7 7D 7B 7D  Length = 392000 BitCount = 102
 283.014097 1  107             Rx   d 4 45 7B EF 7C  Length = 312000 BitCount = 82
 283.023653 1  107             Rx   d 4 45 7B F3 7C  Length = 312000 BitCount = 82
 283.024157 1  101             Rx   d 8 00 00 00 00 00 00 00 00  Length = 488000 BitCount = 126
 283.024441 1  103             Rx   d 2 00 00  Length = 268000 BitCount = 71
 283.024853 1  104             Rx   d 6 7F 7D 5F 7D 83 7D  Length = 396000 BitCount = 103
 283.033769 1  104             Rx   d 6 7F 7D 6F 7D 8F 7D  Length = 392000 BitCount = 102
 283.034097 1  107             Rx   d 4 76 7B F7 7C  Length = 312000 BitCount = 82
 283.043666 1  107             Rx   d 4 76 7B FB 7C  Length = 320000 BitCount = 84
 283.044082 1  104             Rx   d 6 7F 7D 07 7E 83 7D  Length = 400000 BitCount = 104
 283.044586 1  101             Rx   d 8 00 00 00 00 00 00 00 00  Length = 488000 BitCount = 126
 283.053782 1  104             Rx   d 6 7F 7D 4F 7E 7B 7D  Length = 388000 BitCount = 101
 283.054118 1  107             Rx   d 4 A0 7B FD 7C  Length = 320000 BitCount = 84
 283.063662 1  107             Rx   d 4 A0 7B FF 7C  Length = 320000 BitCount = 84
 283.064074 1  104             Rx   d 6 7F 7D 1F 7E 7F 7D  Length = 396000 BitCount = 103
 283.064578 1  101             Rx   d 8 00 00 00 00 00 00 00 00  Length = 488000 BitCount = 126
 283.073662 1  107             Rx   d 4 C3 7B 01 7D  Length = 316000 BitCount = 83
 283.074070 1  105             Rx   d 6 3E 2A 72 1F 00 00  Length = 392000 BitCount = 102
 283.074474 1  104             Rx   d 6 7F 7D 17 7E 87 7D  Length = 388000 BitCount = 101
 283.083755 1  104             Rx   d 6 7F 7D FF 7D 7F 7D  Length = 400000 BitCount = 104
 283.084083 1  107             Rx   d 4 C3 7B 03 7D  Length = 312000 BitCount = 82
 283.084587 1  101             Rx   d 8 00 00 00 00 00 00 00 00  Length = 488000 BitCount = 126
 283.093663 1  107             Rx   d 4 DF 7B 05 7D  Length = 316000 BitCount = 83
 283.094067 1  104             Rx   d 6 7F 7D 97 7D 7B 7D  Length = 388000 BitCount = 101
 283.103867 1  101             Rx   d 8 00 00 00 00 00 00 00 00  Length = 488000 BitCount = 126
 283.104275 1  104             Rx   d 6 7F 7D 6F 7D 87 7D  Length = 392000 BitCount = 102
 283.104607 1  107             Rx   d 4 DF 7B 07 7D  Length = 316000 BitCount = 83
 283.113651 1  107             Rx   d 4 F4 7B 09 7D  Length = 308000 BitCount = 81
 283.114059 1  104             Rx   d 6 7F 7D C7 7D 8B 7D  Length = 392000 BitCount = 102
 283.123803 1  104             Rx   d 6 7F 7D F7 7D 7F 7D  Length = 396000 BitCount = 103
 283.124127 1  107             Rx   d 4 F4 7B 09 7D  Length = 308000 BitCount = 81
 283.124411 1  103             Rx   d 2 00 00  Length = 268000 BitCount = 71
 283.124915 1  101             Rx   d 8 00 00 00 00 00 00 00 00  Length = 488000 BitCount = 126
 283.133676 1  107             Rx   d 4 10 7C 0B 7D  Length = 328000 BitCount = 86
 283.134088 1  104             Rx   d 6 7F 7D 97 7D 7F 7D  Length = 396000 BitCount = 103
 283.143744 1  104             Rx   d 6 7F 7D 7F 7D 83 7D  Length = 404000 BitCount = 105
 283.144088 1  107             Rx   d 4 10 7C 0D 7D  Length = 328000 BitCount = 86
 283.144592 1  101             Rx   d 8 00 00 00 00 00 00 00 00  Length = 488000 BitCount = 126
 283.153664 1  107             Rx   d 4 25 7C 0D 7D  Length = 320000 BitCount = 84
 283.154068 1  104             Rx   d 6 7F 7D D7 7D 7B 7D  Length = 388000 BitCount = 101
 283.163896 1  101             Rx   d 8 00 00 00 00 00 00 00 00  Length = 488000 BitCount = 126
 283.164304 1  104             Rx   d 6 7F 7D DF 7D 6B 7D  Length = 392000 BitCount = 102
 283.164640 1  107             Rx   d 4 25 7C 0D 7D  Length = 320000 BitCount = 84
 283.173729 1  107             Rx   d 4 41 7C 0F 7D  Length = 320000 BitCount = 84
 283.174133 1  104             Rx   d 6 7F 7D C7 7D 77 7D  Length = 388000 BitCount = 101
 283.183797 1  104             Rx   d 6 7F 7D F7 7D 7F 7D  Length = 396000 BitCount = 103
 283.184133 1  107             Rx   d 4 41 7C 0F 7D  Length = 320000 BitCount = 84
 283.184637 1  101             Rx   d 8 00 00 00 00 00 00 00 00  Length = 488000 BitCount = 126
 283.193665 1  107             Rx   d 4 5D 7C 11 7D  Length = 316000 BitCount = 83
 283.194069 1  104             Rx   d 6 7F 7D 17 7E 7B 7D  Length = 388000 BitCount = 101
 283.203789 1  104             Rx   d 6 7F 7D DF 7D 7F 7D  Length = 400000 BitCount = 104
 283.204121 1  107             Rx   d 4 5D 7C 11 7D  Length = 316000 BitCount = 83
 283.204625 1  101             Rx   d 8 00 00 00 00 00 00 00 00  Length = 488000 BitCount = 126
 283.213665 1  107             Rx   d 4 87 7C 13 7D  Length = 320000 BitCount = 84
 283.214073 1  104             Rx   d 6 7F 7D BF 7D 8B 7D  Length = 392000 BitCount = 102
 283.223746 1  104             Rx   d 6 7F 7D F7 7D 87 7D  Length = 400000 BitCount = 104
 283.224250 1  101             Rx   d 8 00 00 00 00 00 00 00 00  Length = 488000 BitCount = 126
 283.224534 1  103             Rx   d 2 00 00  Length = 268000 BitCount = 71
 283.224866 1  107             Rx   d 4 87 7C 15 7D  Length = 316000 BitCount = 83
 283.233662 1  107             Rx   d 4 AA 7C 17 7D  Length = 316000 BitCount = 83
 283.234066 1  104             Rx   d 6 7F 7D 0F 7E 73 7D  Length = 388000 BitCount = 101
 283.243734 1  104             Rx   d 6 7F 7D E7 7D 67 7D  Length = 388000 BitCount = 101
 283.244066 1  107             Rx   d 4 AA 7C 19 7D  Length = 316000 BitCount = 83
 283.244570 1  101             Rx   d 8 00 00 00 00 00 00 00 00  Length = 488000 BitCount = 126
 283.253666 1  107             Rx   d 4 DB 7C 1B 7D  Length = 316000 BitCount = 83
 283.254078 1  104             Rx   d 6 7F 7D FF 7D 77 7D  Length = 396000 BitCount = 103
 283.263755 1  104             Rx   d 6 7F 7D 2F 7E 7F 7D  Length = 392000 BitCount = 102
 283.264259 1  101             Rx   d 8 00 00 00 00 00 00 00 00  Length = 488000 BitCount = 126
 283.264595 1  107             Rx   d 4 DB 7C 1F 7D  Length = 320000 BitCount = 84
 283.273675 1  107             Rx   d 4 FE 7C 1F 7D  Length = 328000 BitCount = 86
 283.274079 1  104             Rx   d 6 7F 7D 0F 7E 8B 7D  Length = 388000 BitCount = 101
 283.283739 1  104             Rx   d 6 7F 7D F7 7D 8F 7D  Length = 396000 BitCount = 103
 283.284243 1  101             Rx   d 8 00 00 00 00 00 00 00 00  Length = 488000 BitCount = 126
 283.284579 1  107             Rx   d 4 FE 7C 21 7D  Length = 320000 BitCount = 84
 283.293663 1  107             Rx   d 4 28 7D 23 7D  Length = 312000 BitCount = 82
 283.294071 1  104             Rx   d 6 7F 7D 2F 7E 7F 7D  Length = 392000 BitCount = 102
 283.303747 1  104             Rx   d 6 7F 7D 5F 7E 73 7D  Length = 396000 BitCount = 103
 283.304251 1  101             Rx   d 8 00 00 00 00 00 00 00 00  Length = 488000 BitCount = 126
 283.304583 1  107             Rx   d 4 28 7D 25 7D  Length = 316000 BitCount = 83
 283.313664 1  107             Rx   d 4 44 7D 29 7D  Length = 316000 BitCount = 83
 283.314072 1  104             Rx   d 6 7F 7D 2F 7E 73 7D  Length = 392000 BitCount = 102
 283.323744 1  104             Rx   d 6 7F 7D F7 7D 7F 7D  Length = 396000 BitCount = 103
 283.324248 1  101             Rx   d 8 00 00 00 00 00 00 00 00  Length = 488000 BitCount = 126
 283.324580 1  107             Rx   d 4 44 7D 2B 7D  Length = 316000 BitCount = 83
 283.324864 1  103             Rx   d 2 00 00  Length = 268000 BitCount = 71
 283.325268 1  105             Rx   d 6 3E 2A 8D 1F 00 00  Length = 388000 BitCount = 101
 283.333796 1  104             Rx   d 6 7F 7D EF 7D 83 7D  Length = 396000 BitCount = 103
 283.334128 1  107             Rx   d 4 60 7D 2D 7D  Length = 316000 BitCount = 83
 283.343664 1  107             Rx   d 4 60 7D 2D 7D  Length = 316000 BitCount = 83
 283.344076 1  104             Rx   d 6 7F 7D B7 7D 7F 7D  Length = 396000 BitCount = 103
 283.344580 1  101             Rx   d 8 00 00 00 00 00 00 00 00  Length = 488000 BitCount = 126
 283.353741 1  104             Rx   d 6 7F 7D 6F 7D 7F 7D  Length = 392000 BitCount = 102
 283.354077 1  107             Rx   d 4 7C 7D 2F 7D  Length = 320000 BitCount = 84
 283.363873 1  101             Rx   d 8 00 00 00 00 00 00 00 00  Length = 488000 BitCount = 126
 283.364277 1  104             Rx   d 6 7F 7D 97 7D 87 7D  Length = 388000 BitCount = 101
 283.364613 1  107             Rx   d 4 7C 7D 2F 7D  Length = 320000 BitCount = 84
 283.373669 1  107             Rx   d 4 8A 7D 2F 7D  Length = 316000 BitCount = 83
 283.374085 1  104             Rx   d 6 7F 7D 1F 7E 83 7D  Length = 400000 BitCount = 104
 283.383721 1  107             Rx   d 4 8A 7D 31 7D  Length = 312000 BitCount = 82
 283.384129 1  104             Rx   d 6 7F 7D 4F 7E 83 7D  Length = 392000 BitCount = 102
 283.384633 1  101             Rx   d 8 00 00 00 00 00 00 00 00  Length = 488000 BitCount = 126
 283.393741 1  104             Rx   d 6 7F 7D 4F 7E 8B 7D  Length = 388000 BitCount = 101
 283.394073 1  107             Rx   d 4 98 7D 33 7D  Length = 316000 BitCount = 83
 283.403706 1  107             Rx   d 4 98 7D 33 7D  Length = 316000 BitCount = 83
 283.404210 1  101             Rx   d 8 00 00 00 00 00 00 00 00  Length = 488000 BitCount = 126
 283.404618 1  104             Rx   d 6 7F 7D 77 7E 7F 7D  Length = 392000 BitCount = 102
 283.413782 1  104             Rx   d 6 7F 7D 47 7E 6F 7D  Length = 396000 BitCount = 103
 283.414110 1  107             Rx   d 4 A6 7D 35 7D  Length = 312000 BitCount = 82
 283.423666 1  107             Rx   d 4 A6 7D 35 7D  Length = 312000 BitCount = 82
 283.423950 1  103             Rx   d 2 00 00  Length = 268000 BitCount = 71
 283.424454 1  101             Rx   d 8 00 00 00 00 00 00 00 00  Length = 488000 BitCount = 126
 283.424858 1  104             Rx   d 6 7F 7D D7 7D 7B 7D  Length = 388000 BitCount = 101
 283.433666 1  107             Rx   d 4 B4 7D 37 7D  Length = 312000 BitCount = 82
 283.434070 1  104             Rx   d 6 7F 7D A7 7D 87 7D  Length = 388000 BitCount = 101
 283.443883 1  101             Rx   d 8 00 00 00 00 00 00 00 00  Length = 488000 BitCount = 126
 283.444291 1  104             Rx   d 6 7F 7D CF 7D 7F 7D  Length = 392000 BitCount = 102
 283.444619 1  107             Rx   d 4 B4 7D 37 7D  Length = 312000 BitCount = 82
 283.453663 1  107             Rx   d 4 C2 7D 37 7D  Length = 312000 BitCount = 82
 283.454071 1  104             Rx   d 6 7F 7D C7 7D 73 7D  Length = 392000 BitCount = 102
 283.463819 1  104             Rx   d 6 7F 7D 97 7D 7F 7D  Length = 396000 BitCount = 103
 283.464147 1  107             Rx   d 4 C2 7D 39 7D  Length = 312000 BitCount = 82
 283.464651 1  101             Rx   d 8 00 00 00 00 00 00 00 00  Length = 488000 BitCount = 126
 283.473663 1  107             Rx   d 4 D0 7D 39 7D  Length = 316000 BitCount = 83
 283.474071 1  104             Rx   d 6 7F 7D C7 7D 83 7D  Length = 392000 BitCount = 102
 283.483799 1  104             Rx   d 6 7F 7D 07 7E 7B 7D  Length = 392000 BitCount = 102
 283.484132 1  107             Rx   d 4 D0 7D 3B 7D  Length = 316000 BitCount = 83
 283.484636 1  101             Rx   d 8 00 00 00 00 00 00 00 00  Length = 488000 BitCount = 126
 283.493672 1  107             Rx   d 4 D7 7D 3B 7D  Length = 316000 BitCount = 83
 283.494084 1  104             Rx   d 6 7F 7D DF 7D 7B 7D  Length = 396000 BitCount = 103
 283.503772 1  104             Rx   d 6 7F 7D CF 7D 83 7D  Length = 396000 BitCount = 103
 283.504276 1  101             Rx   d 8 00 00 00 00 00 00 00 00  Length = 488000 BitCount = 126
 283.504608 1  107             Rx   d 4 D7 7D 3B 7D  Length = 316000 BitCount = 83
 283.513672 1  107             Rx   d 4 DE 7D 3D 7D  Length = 316000 BitCount = 83
 283.514080 1  104             Rx   d 6 7F 7D 07 7E 7B 7D  Length = 392000 BitCount = 102
 283.523748 1  104             Rx   d 6 7F 7D FF 7D 5B 7D  Length = 396000 BitCount = 103
 283.524080 1  107             Rx   d 4 DE 7D 3D 7D  Length = 316000 BitCount = 83
 283.524584 1  101             Rx   d 8 00 00 00 00 00 00 00 00  Length = 488000 BitCount = 126
 283.524868 1  103             Rx   d 2 00 00  Length = 268000 BitCount = 71
 283.533785 1  104             Rx   d 6 7F 7D BF 7D 67 7D  Length = 392000 BitCount = 102
 283.534117 1  107             Rx   d 4 E5 7D 3D 7D  Length = 316000 BitCount = 83
 283.543673 1  107             Rx   d 4 E5 7D 3D 7D  Length = 316000 BitCount = 83
 283.544177 1  101             Rx   d 8 00 00 00 00 00 00 00 00  Length = 488000 BitCount = 126
 283.544581 1  104             Rx   d 6 7F 7D CF 7D 7B 7D  Length = 388000 BitCount = 101
 283.553761 1  104             Rx   d 6 7F 7D 0F 7E 7F 7D  Length = 392000 BitCount = 102
 283.554093 1  107             Rx   d 4 E5 7D 3F 7D  Length = 316000 BitCount = 83
 283.563673 1  107             Rx   d 4 E5 7D 3F 7D  Length = 316000 BitCount = 83
 283.564177 1  101             Rx   d 8 00 00 00 00 00 00 00 00  Length = 488000 BitCount = 126
 283.564585 1  104             Rx   d 6 7F 7D EF 7D 7B 7D  Length = 392000 BitCount = 102
 283.573758 1  104             Rx   d 6 7F 7D B7 7D 7F 7D  Length = 396000 BitCount = 103
 283.574090 1  107             Rx   d 4 E5 7D 3F 7D  Length = 316000 BitCount = 83
 283.574490 1  105             Rx   d 6 4A 2A 97 1F 00 00  Length = 384000 BitCount = 100
 283.583798 1  104             Rx   d 6 7F 7D FF 7D 87 7D  Length = 392000 BitCount = 102
 283.584302 1  101             Rx   d 8 00 00 00 00 00 00 00 00  Length = 488000 BitCount = 126
 283.584634 1  107             Rx   d 4 E5 7D 3F 7D  Length = 316000 BitCount = 83
 283.593706 1  107             Rx   d 4 E5 7D 3F 7D  Length = 316000 BitCount = 83
 283.594110 1  104             Rx   d 6 7F 7D 4F 7E 7B 7D  Length = 388000 BitCount = 101
 283.603750 1  104             Rx   d 6 7F 7D 2F 7E 7F 7D  Length = 392000 BitCount = 102
 283.604254 1  101             Rx   d 8 00 00 00 00 00 00 00 00  Length = 488000 BitCount = 126
 283.604586 1  107             Rx   d 4 E5 7D 3F 7D  Length = 316000 BitCount = 83
 283.613674 1  107             Rx   d 4 E5 7D 3F 7D  Length = 316000 BitCount = 83
 283.614082 1  104             Rx   d 6 7F 7D 27 7E 83 7D  Length = 392000 BitCount = 102
 283.623751 1  104             Rx   d 6 7F 7D 67 7E 83 7D  Length = 392000 BitCount = 102
 283.624083 1  107             Rx   d 4 E5 7D 3F 7D  Length = 316000 BitCount = 83
 283.624367 1  103             Rx   d 2 00 00  Length = 268000 BitCount = 71
 283.624871 1  101             Rx   d 8 00 00 00 00 00 00 00 00  Length = 488000 BitCount = 126
 283.633783 1  104             Rx   d 6 7F 7D 57 7E 7B 7D  Length = 392000 BitCount = 102
 283.634115 1  107             Rx   d 4 DE 7D 3F 7D  Length = 316000 BitCount = 83
 283.643675 1  107             Rx   d 4 DE 7D 3F 7D  Length = 316000 BitCount = 83
 283.644179 1  101             Rx   d 8 00 00 00 00 00 00 00 00  Length = 488000 BitCount = 126
 283.644583 1  104             Rx   d 6 7F 7D D7 7D 7B 7D  Length = 388000 BitCount = 101
 283.653803 1  104             Rx   d 6 7F 7D AF 7D 83 7D  Length = 396000 BitCount = 103
 283.654135 1  107             Rx   d 4 DE 7D 3F 7D  Length = 316000 BitCount = 83
 283.663696 1  107             Rx   d 4 DE 7D 3F 7D  Length = 316000 BitCount = 83
 283.664104 1  104             Rx   d 6 7F 7D C7 7D 7F 7D  Length = 392000 BitCount = 102
 283.664608 1  101             Rx   d 8 00 00 00 00 00 00 00 00  Length = 488000 BitCount = 126
 283.673792 1  104             Rx   d 6 7F 7D BF 7D 73 7D  Length = 392000 BitCount = 102
 283.674124 1  107             Rx   d 4 DE 7D 3F 7D  Length = 316000 BitCount = 83
 283.683728 1  107             Rx   d 4 DE 7D 3F 7D  Length = 316000 BitCount = 83
 283.684132 1  104             Rx   d 6 7F 7D E7 7D 77 7D  Length = 388000 BitCount = 101
 283.684636 1  101             Rx   d 8 00 00 00 00 00 00 00 00  Length = 488000 BitCount = 126
 283.693716 1  107             Rx   d 4 D7 7D 3F 7D  Length = 320000 BitCount = 84
 283.694120 1  104             Rx   d 6 7F 7D 67 7E 7B 7D  Length = 388000 BitCount = 101
 283.703752 1  104             Rx   d 6 7F 7D B7 7E 77 7D  Length = 388000 BitCount = 101
 283.704256 1  101             Rx   d 8 00 00 00 00 00 00 00 00  Length = 488000 BitCount = 126
 283.704592 1  107             Rx   d 4 D7 7D 3F 7D  Length = 320000 BitCount = 84
 283.713729 1  107             Rx   d 4 D7 7D 3F 7D  Length = 320000 BitCount = 84
 283.714137 1  104             Rx   d 6 7F 7D 7F 7E 77 7D  Length = 392000 BitCount = 102
 283.723749 1  104             Rx   d 6 7F 7D 4F 7E 87 7D  Length = 392000 BitCount = 102
 283.724085 1  107             Rx   d 4 D7 7D 3F 7D  Length = 320000 BitCount = 84
 283.724589 1  101             Rx   d 8 00 00 00 00 00 00 00 00  Length = 488000 BitCount = 126
 283.724873 1  103             Rx   d 2 00 00  Length = 268000 BitCount = 71
 283.733677 1  107             Rx   d 4 D7 7D 3F 7D  Length = 320000 BitCount = 84
 283.734081 1  104             Rx   d 6 7F 7D 67 7E 93 7D  Length = 388000 BitCount = 101
 283.743717 1  107             Rx   d 4 D7 7D 3F 7D  Length = 320000 BitCount = 84
 283.744221 1  101             Rx   d 8 00 00 00 00 00 00 00 00  Length = 488000 BitCount = 126
 283.744633 1  104             Rx   d 6 7F 7D 3F 7E 7F 7D  Length = 396000 BitCount = 103
 283.753738 1  104             Rx   d 6 7F 7D CF 7D 6B 7D  Length = 388000 BitCount = 101
 283.754074 1  107             Rx   d 4 D7 7D 3F 7D  Length = 320000 BitCount = 84
 283.763718 1  107             Rx   d 4 D7 7D 3F 7D  Length = 320000 BitCount = 84
 283.764222 1  101             Rx   d 8 00 00 00 00 00 00 00 00  Length = 488000 BitCount = 126
 283.764630 1  104             Rx   d 6 7F 7D 9F 7D 6B 7D  Length = 392000 BitCount = 102
 283.773786 1  104             Rx   d 6 7F 7D 97 7D 67 7D  Length = 388000 BitCount = 101
 283.774122 1  107             Rx   d 4 D7 7D 3F 7D  Length = 320000 BitCount = 84
 283.783678 1  107             Rx   d 4 D7 7D 3F 7D  Length = 320000 BitCount = 84
 283.784182 1  101             Rx   d 8 00 00 00 00 00 00 00 00  Length = 488000 BitCount = 126
 283.784590 1  104             Rx   d 6 7F 7D 67 7D 73 7D  Length = 392000 BitCount = 102
 283.793754 1  104             Rx   d 6 7F 7D 4F 7D 7F 7D  Length = 392000 BitCount = 102
 283.794090 1  107             Rx   d 4 D7 7D 3F 7D  Length = 320000 BitCount = 84
 283.803687 1  107             Rx   d 4 D7 7D 3F 7D  Length = 320000 BitCount = 84
 283.804099 1  104             Rx   d 6 7F 7D BF 7D 7F 7D  Length = 396000 BitCount = 103
 283.804603 1  101             Rx   d 8 00 00 00 00 00 00 00 00  Length = 488000 BitCount = 126
 283.813803 1  104             Rx   d 6 7F 7D 27 7E 6B 7D  Length = 388000 BitCount = 101
 283.814139 1  107             Rx   d 4 D7 7D 3F 7D  Length = 320000 BitCount = 84
 283.823683 1  107             Rx   d 4 D7 7D 3F 7D  Length = 320000 BitCount = 84
 283.824091 1  104             Rx   d 6 7F 7D 27 7E 77 7D  Length = 392000 BitCount = 102
 283.824495 1  105             Rx   d 6 3E 2A 89 1F 00 00  Length = 388000 BitCount = 101
 283.824779 1  103             Rx   d 2 00 00  Length = 268000 BitCount = 71
 283.825283 1  101             Rx   d 8 00 00 00 00 00 00 00 00  Length = 488000 BitCount = 126
 283.833811 1  104             Rx   d 6 7F 7D 1F 7E 8F 7D  Length = 396000 BitCount = 103
 283.834147 1  107             Rx   d 4 D7 7D 3F 7D  Length = 320000 BitCount = 84
 283.843732 1  107             Rx   d 4 D7 7D 3F 7D  Length = 320000 BitCount = 84
 283.844136 1  104             Rx   d 6 7F 7D 47 7E 93 7D  Length = 388000 BitCount = 101
 283.844640 1  101             Rx   d 8 00 00 00 00 00 00 00 00  Length = 488000 BitCount = 126
 283.853716 1  107             Rx   d 4 D7 7D 3F 7D  Length = 320000 BitCount = 84
 283.854128 1  104             Rx   d 6 7F 7D 07 7E 7F 7D  Length = 396000 BitCount = 103
 283.863764 1  104             Rx   d 6 7F 7D 87 7D 7F 7D  Length = 392000 BitCount = 102
 283.864268 1  101             Rx   d 8 00 00 00 00 00 00 00 00  Length = 488000 BitCount = 126
 283.864604 1  107             Rx   d 4 D7 7D 3F 7D  Length = 320000 BitCount = 84
 283.873732 1  107             Rx   d 4 D7 7D 3F 7D  Length = 320000 BitCount = 84
 283.874136 1  104             Rx   d 6 7F 7D 87 7D 87 7D  Length = 388000 BitCount = 101
 283.883756 1  104             Rx   d 6 7F 7D A7 7D 7B 7D  Length = 392000 BitCount = 102
 283.884092 1  107             Rx   d 4 D7 7D 3F 7D  Length = 320000 BitCount = 84
 283.884596 1  101             Rx   d 8 00 00 00 00 00 00 00 00  Length = 488000 BitCount = 126
 283.893717 1  107             Rx   d 4 D7 7D 3F 7D  Length = 320000 BitCount = 84
 283.894125 1  104             Rx   d 6 7F 7D 7F 7D 7B 7D  Length = 392000 BitCount = 102
 283.903757 1  104             Rx   d 6 7F 7D 7F 7D 7F 7D  Length = 396000 BitCount = 103
 283.904093 1  107             Rx   d 4 D7 7D 3F 7D  Length = 320000 BitCount = 84
 283.904597 1  101             Rx   d 8 00 00 00 00 00 00 00 00  Length = 488000 BitCount = 126
 283.913797 1  104             Rx   d 6 7F 7D 07 7E 7F 7D  Length = 396000 BitCount = 103
 283.914133 1  107             Rx   d 4 D7 7D 3F 7D  Length = 320000 BitCount = 84
 283.923681 1  107             Rx   d 4 D7 7D 3F 7D  Length = 320000 BitCount = 84
 283.924185 1  101             Rx   d 8 00 00 00 00 00 00 00 00  Length = 488000 BitCount = 126
 283.924593 1  104             Rx   d 6 7F 7D 77 7E 7B 7D  Length = 392000 BitCount = 102
 283.924877 1  103             Rx   d 2 00 00  Length = 268000 BitCount = 71
 283.933794 1  104             Rx   d 6 7F 7D 4F 7E 7B 7D  Length = 388000 BitCount = 101
 283.934130 1  107             Rx   d 4 D7 7D 3F 7D  Length = 320000 BitCount = 84
 283.943686 1  107             Rx   d 4 D7 7D 3F 7D  Length = 320000 BitCount = 84
 283.944094 1  104             Rx   d 6 7F 7D 2F 7E 7B 7D  Length = 392000 BitCount = 102
 283.944598 1  101             Rx   d 8 00 00 00 00 00 00 00 00  Length = 488000 BitCount = 126
 283.953802 1  104             Rx   d 6 7F 7D 47 7E 77 7D  Length = 388000 BitCount = 101
 283.954138 1  107             Rx   d 4 D0 7D 3F 7D  Length = 320000 BitCount = 84
 283.963686 1  107             Rx   d 4 D0 7D 3F 7D  Length = 320000 BitCount = 84
 283.964094 1  104             Rx   d 6 7F 7D 07 7E 7B 7D  Length = 392000 BitCount = 102
